(1667318051.388250) vcan0 521#FFFF00000000
(1667318051.388303) vcan0 525#0000000000000000
(1667318051.388335) vcan0 526#DF2E
(1667318051.397329) vcan0 525#1500150015001500
(1667318051.408672) vcan0 521#700000007C00
(1667318051.408722) vcan0 525#2A002A002A002A00
(1667318051.419288) vcan0 525#3F003F003F003F00
(1667318051.429792) vcan0 521#700000008B00
(1667318051.429848) vcan0 525#5300530053005300
(1667318051.440416) vcan0 525#6800680068006800
(1667318051.450862) vcan0 521#6B0000009A00
(1667318051.450917) vcan0 525#7D007D007D007D00
(1667318051.460318) vcan0 525#9200920092009200
(1667318051.469739) vcan0 521#63000000A800
(1667318051.469791) vcan0 525#A700A700A700A700
(1667318051.479189) vcan0 525#BC00BC00BC00BC00
(1667318051.487669) vcan0 521#5A000000B600
(1667318051.487724) vcan0 525#D100D100D100D100
(1667318051.496333) vcan0 525#D100D100D100D100
(1667318051.505414) vcan0 521#DFFF00004800
(1667318051.505469) vcan0 525#D100D100D100D100
(1667318051.514213) vcan0 525#D100D100D100D100
(1667318051.522625) vcan0 521#D6FF00004600
(1667318051.522677) vcan0 525#D100D100D100D100
(1667318051.531996) vcan0 525#D100D100D100D100
(1667318051.541455) vcan0 521#D1FF00004500
(1667318051.541508) vcan0 525#D100D100D100D100
(1667318051.550949) vcan0 525#D100D100D100D100
(1667318051.561172) vcan0 521#CFFF00004500
(1667318051.561226) vcan0 525#D100D100D100D100
(1667318051.571875) vcan0 525#D100D100D100D100
(1667318051.582328) vcan0 521#CFFF00004600
(1667318051.582380) vcan0 525#D100D100D100D100
(1667318051.582412) vcan0 526#D42E
(1667318051.592862) vcan0 525#D100D100D100D100
(1667318051.604284) vcan0 521#D0FF00004600
(1667318051.604337) vcan0 525#D100D100D100D100
(1667318051.615667) vcan0 525#D100D100D100D100
(1667318051.626996) vcan0 521#D2FF00004700
(1667318051.627049) vcan0 525#D100D100D100D100
(1667318051.639291) vcan0 525#D100D100D100D100
(1667318051.657123) vcan0 521#D4FF00004700
(1667318051.657328) vcan0 525#D100D100D100D100
(1667318051.673908) vcan0 525#D100D100D100D100
(1667318051.683130) vcan0 521#D5FF00004600
(1667318051.683222) vcan0 525#D100D100D100D100
(1667318051.693522) vcan0 525#D100D100D100D100
(1667318051.703471) vcan0 521#D7FF00004500
(1667318051.703533) vcan0 525#D100D100D100D100
(1667318051.714489) vcan0 525#D100D100D100D100
(1667318051.725353) vcan0 521#D9FF00004400
(1667318051.725414) vcan0 525#D100D100D100D100
(1667318051.736367) vcan0 525#D100D100D100D100
(1667318051.746126) vcan0 521#DAFF00004300
(1667318051.746189) vcan0 525#D100D100D100D100
(1667318051.756044) vcan0 525#D100D100D100D100
(1667318051.765936) vcan0 521#DCFF00004200
(1667318051.766015) vcan0 525#D100D100D100D100
(1667318051.774800) vcan0 525#D100D100D100D100
(1667318051.783624) vcan0 521#DEFF00004100
(1667318051.783686) vcan0 525#D100D100D100D100
(1667318051.792655) vcan0 525#D100D100D100D100
(1667318051.801386) vcan0 521#E0FF00003F00
(1667318051.801446) vcan0 525#D100D100D100D100
(1667318051.801484) vcan0 526#C92E
(1667318051.809782) vcan0 525#D100D100D100D100
(1667318051.819528) vcan0 521#E2FF00003D00
(1667318051.819593) vcan0 525#D100D100D100D100
(1667318051.829448) vcan0 525#D100D100D100D100
(1667318051.839157) vcan0 521#E4FF00003C00
(1667318051.839218) vcan0 525#D100D100D100D100
(1667318051.850121) vcan0 525#D100D100D100D100
(1667318051.860876) vcan0 521#E6FF00003A00
(1667318051.860937) vcan0 525#D100D100D100D100
(1667318051.871808) vcan0 525#D100D100D100D100
(1667318051.883195) vcan0 521#E8FF00003800
(1667318051.883256) vcan0 525#D100D100D100D100
(1667318051.894564) vcan0 525#D100D100D100D100
(1667318051.906492) vcan0 521#EBFF00003600
(1667318051.906552) vcan0 525#D100D100D100D100
(1667318051.918650) vcan0 525#D100D100D100D100
(1667318051.930641) vcan0 521#EDFF00003400
(1667318051.930704) vcan0 525#D100D100D100D100
(1667318051.942553) vcan0 525#D100D100D100D100
(1667318051.954393) vcan0 521#EFFF00003100
(1667318051.954456) vcan0 525#D100D100D100D100
(1667318051.966512) vcan0 525#D100D100D100D100
(1667318051.977242) vcan0 521#F2FF00002F00
(1667318051.977303) vcan0 525#D100D100D100D100
(1667318051.988280) vcan0 525#D100D100D100D100
(1667318051.999110) vcan0 521#F4FF00002D00
(1667318051.999173) vcan0 525#D100D100D100D100
(1667318052.010105) vcan0 525#D100D100D100D100
(1667318052.019802) vcan0 521#F7FF00002A00
(1667318052.019864) vcan0 525#D100D100D100D100
(1667318052.019904) vcan0 526#BE2E
(1667318052.028831) vcan0 525#D100D100D100D100
(1667318052.038454) vcan0 521#FAFF00002800
(1667318052.038515) vcan0 525#D100D100D100D100
(1667318052.047496) vcan0 525#D100D100D100D100
(1667318052.056054) vcan0 521#FCFF00002500
(1667318052.056119) vcan0 525#D100D100D100D100
(1667318052.064147) vcan0 525#D100D100D100D100
(1667318052.073834) vcan0 521#FFFF00002300
(1667318052.073894) vcan0 525#D100D100D100D100
(1667318052.083902) vcan0 525#D100D100D100D100
(1667318052.093565) vcan0 521#020000002000
(1667318052.093625) vcan0 525#D100D100D100D100
(1667318052.104635) vcan0 525#D100D100D100D100
(1667318052.115366) vcan0 521#050000001E00
(1667318052.115427) vcan0 525#D100D100D100D100
(1667318052.126408) vcan0 525#D100D100D100D100
(1667318052.137016) vcan0 521#070000001B00
(1667318052.137076) vcan0 525#D100D100D100D100
(1667318052.148945) vcan0 525#D100D100D100D100
(1667318052.160566) vcan0 521#0A0000001800
(1667318052.160627) vcan0 525#D100D100D100D100
(1667318052.172538) vcan0 525#D100D100D100D100
(1667318052.185672) vcan0 521#0D0000001500
(1667318052.185733) vcan0 525#D100D100D100D100
(1667318052.196965) vcan0 525#D100D100D100D100
(1667318052.208717) vcan0 521#100000001300
(1667318052.208777) vcan0 525#D100D100D100D100
(1667318052.220301) vcan0 525#D100D100D100D100
(1667318052.230874) vcan0 521#120000001000
(1667318052.230958) vcan0 525#D100D100D100D100
(1667318052.231011) vcan0 526#B52E
(1667318052.241941) vcan0 525#D100D100D100D100
(1667318052.252616) vcan0 521#150000000D00
(1667318052.252696) vcan0 525#D100D100D100D100
(1667318052.263378) vcan0 525#D100D100D100D100
(1667318052.273109) vcan0 521#180000000A00
(1667318052.273195) vcan0 525#D100D100D100D100
(1667318052.282591) vcan0 525#D100D100D100D100
(1667318052.292249) vcan0 521#1B0000000700
(1667318052.292331) vcan0 525#D100D100D100D100
(1667318052.301288) vcan0 525#D100D100D100D100
(1667318052.309521) vcan0 521#1D0000000400
(1667318052.309605) vcan0 525#D100D100D100D100
(1667318052.318759) vcan0 525#D100D100D100D100
(1667318052.328519) vcan0 521#200000000200
(1667318052.328605) vcan0 525#D100D100D100D100
(1667318052.338186) vcan0 525#D100D100D100D100
(1667318052.348025) vcan0 521#23000000FFFF
(1667318052.348111) vcan0 525#D100D100D100D100
(1667318052.358783) vcan0 525#D100D100D100D100
(1667318052.369702) vcan0 521#25000000FCFF
(1667318052.369788) vcan0 525#D100D100D100D100
(1667318052.380248) vcan0 525#D100D100D100D100
(1667318052.391071) vcan0 521#28000000F9FF
(1667318052.391155) vcan0 525#D100D100D100D100
(1667318052.402706) vcan0 525#D100D100D100D100
(1667318052.414465) vcan0 521#2B000000F6FF
(1667318052.414547) vcan0 525#D100D100D100D100
(1667318052.425931) vcan0 525#D100D100D100D100
(1667318052.438953) vcan0 521#2D000000F4FF
(1667318052.439036) vcan0 525#D100D100D100D100
(1667318052.439090) vcan0 526#AD2E
(1667318052.450093) vcan0 525#D100D100D100D100
(1667318052.462081) vcan0 521#2F000000F1FF
(1667318052.462161) vcan0 525#D100D100D100D100
(1667318052.472899) vcan0 525#D100D100D100D100
(1667318052.483365) vcan0 521#32000000EEFF
(1667318052.483420) vcan0 525#D100D100D100D100
(1667318052.493131) vcan0 525#D100D100D100D100
(1667318052.501530) vcan0 521#34000000ECFF
(1667318052.501583) vcan0 525#D100D100D100D100
(1667318052.512158) vcan0 525#D100D100D100D100
(1667318052.521470) vcan0 521#36000000E9FF
(1667318052.521525) vcan0 525#D100D100D100D100
(1667318052.531217) vcan0 525#D100D100D100D100
(1667318052.541180) vcan0 521#38000000E7FF
(1667318052.541233) vcan0 525#D100D100D100D100
(1667318052.549817) vcan0 525#D100D100D100D100
(1667318052.558837) vcan0 521#3A000000E4FF
(1667318052.558891) vcan0 525#D100D100D100D100
(1667318052.567480) vcan0 525#D100D100D100D100
(1667318052.576818) vcan0 521#3C000000E2FF
(1667318052.576869) vcan0 525#D100D100D100D100
(1667318052.586074) vcan0 525#D100D100D100D100
(1667318052.595439) vcan0 521#3E000000E0FF
(1667318052.595488) vcan0 525#D100D100D100D100
(1667318052.605726) vcan0 525#D100D100D100D100
(1667318052.616183) vcan0 521#40000000DEFF
(1667318052.616237) vcan0 525#D100D100D100D100
(1667318052.626254) vcan0 525#D100D100D100D100
(1667318052.637997) vcan0 521#42000000DCFF
(1667318052.638212) vcan0 525#D100D100D100D100
(1667318052.638391) vcan0 526#A32E
(1667318052.651554) vcan0 525#D100D100D100D100
(1667318052.663426) vcan0 521#43000000DAFF
(1667318052.663639) vcan0 525#D100D100D100D100
(1667318052.674912) vcan0 525#D100D100D100D100
(1667318052.687003) vcan0 521#45000000D8FF
(1667318052.687211) vcan0 525#D100D100D100D100
(1667318052.698388) vcan0 525#D100D100D100D100
(1667318052.710763) vcan0 521#46000000D6FF
(1667318052.710971) vcan0 525#D100D100D100D100
(1667318052.723652) vcan0 525#D100D100D100D100
(1667318052.733478) vcan0 521#47000000D4FF
(1667318052.733572) vcan0 525#D100D100D100D100
(1667318052.744224) vcan0 525#D100D100D100D100
(1667318052.754621) vcan0 521#48000000D3FF
(1667318052.754701) vcan0 525#D100D100D100D100
(1667318052.764250) vcan0 525#D100D100D100D100
(1667318052.773798) vcan0 521#49000000D1FF
(1667318052.773877) vcan0 525#D100D100D100D100
(1667318052.784489) vcan0 525#D100D100D100D100
(1667318052.792513) vcan0 521#4A000000D0FF
(1667318052.792584) vcan0 525#D100D100D100D100
(1667318052.800660) vcan0 525#D100D100D100D100
(1667318052.809223) vcan0 521#4B000000CFFF
(1667318052.809289) vcan0 525#D100D100D100D100
(1667318052.819018) vcan0 525#D100D100D100D100
(1667318052.827364) vcan0 521#4B000000CEFF
(1667318052.827567) vcan0 525#D100D100D100D100
(1667318052.836594) vcan0 525#D100D100D100D100
(1667318052.845402) vcan0 521#4C000000CDFF
(1667318052.845494) vcan0 525#D100D100D100D100
(1667318052.845553) vcan0 526#982E
(1667318052.854202) vcan0 525#D100D100D100D100
(1667318052.864849) vcan0 521#4C000000CCFF
(1667318052.864920) vcan0 525#D100D100D100D100
(1667318052.875701) vcan0 525#D100D100D100D100
(1667318052.886340) vcan0 521#4D000000CBFF
(1667318052.886408) vcan0 525#D100D100D100D100
(1667318052.897241) vcan0 525#D100D100D100D100
(1667318052.908939) vcan0 521#4D000000CAFF
(1667318052.909025) vcan0 525#D100D100D100D100
(1667318052.920719) vcan0 525#D100D100D100D100
(1667318052.932542) vcan0 521#4D000000CAFF
(1667318052.932637) vcan0 525#D100D100D100D100
(1667318052.945158) vcan0 525#D100D100D100D100
(1667318052.958233) vcan0 521#4C000000C9FF
(1667318052.958474) vcan0 525#D100D100D100D100
(1667318052.969360) vcan0 525#D100D100D100D100
(1667318052.981204) vcan0 521#4C000000C9FF
(1667318052.981407) vcan0 525#D100D100D100D100
(1667318052.993285) vcan0 525#D100D100D100D100
(1667318053.004016) vcan0 521#4C000000C9FF
(1667318053.004241) vcan0 525#D100D100D100D100
(1667318053.015362) vcan0 525#D100D100D100D100
(1667318053.026382) vcan0 521#4B000000C9FF
(1667318053.026644) vcan0 525#D100D100D100D100
(1667318053.036672) vcan0 525#D100D100D100D100
(1667318053.046352) vcan0 521#4B000000C9FF
(1667318053.046586) vcan0 525#D100D100D100D100
(1667318053.056413) vcan0 525#D100D100D100D100
(1667318053.065001) vcan0 521#4A000000C9FF
(1667318053.065130) vcan0 525#D100D100D100D100
(1667318053.065216) vcan0 526#8F2E
(1667318053.073521) vcan0 525#D100D100D100D100
(1667318053.082308) vcan0 521#49000000CAFF
(1667318053.082397) vcan0 525#D100D100D100D100
(1667318053.091291) vcan0 525#D100D100D100D100
(1667318053.099836) vcan0 521#48000000CAFF
(1667318053.099897) vcan0 525#D100D100D100D100
(1667318053.109523) vcan0 525#D100D100D100D100
(1667318053.119424) vcan0 521#47000000CBFF
(1667318053.119476) vcan0 525#D100D100D100D100
(1667318053.131679) vcan0 525#D100D100D100D100
(1667318053.142810) vcan0 521#45000000CCFF
(1667318053.143015) vcan0 525#D100D100D100D100
(1667318053.153043) vcan0 525#D100D100D100D100
(1667318053.164185) vcan0 521#44000000CCFF
(1667318053.164390) vcan0 525#D100D100D100D100
(1667318053.175394) vcan0 525#D100D100D100D100
(1667318053.186060) vcan0 521#43000000CDFF
(1667318053.186140) vcan0 525#D100D100D100D100
(1667318053.197366) vcan0 525#D100D100D100D100
(1667318053.210368) vcan0 521#41000000CFFF
(1667318053.210451) vcan0 525#D100D100D100D100
(1667318053.221584) vcan0 525#D100D100D100D100
(1667318053.233783) vcan0 521#3F000000D0FF
(1667318053.233890) vcan0 525#D100D100D100D100
(1667318053.245880) vcan0 525#D100D100D100D100
(1667318053.257086) vcan0 521#3E000000D1FF
(1667318053.257240) vcan0 525#D100D100D100D100
(1667318053.267540) vcan0 525#D100D100D100D100
(1667318053.278423) vcan0 521#3C000000D3FF
(1667318053.278603) vcan0 525#D100D100D100D100
(1667318053.278749) vcan0 526#842E
(1667318053.288604) vcan0 525#D100D100D100D100
(1667318053.298641) vcan0 521#3A000000D4FF
(1667318053.298847) vcan0 525#D100D100D100D100
(1667318053.308553) vcan0 525#D100D100D100D100
(1667318053.318318) vcan0 521#38000000D6FF
(1667318053.318539) vcan0 525#D100D100D100D100
(1667318053.327477) vcan0 525#D100D100D100D100
(1667318053.335610) vcan0 521#35000000D8FF
(1667318053.335801) vcan0 525#D100D100D100D100
(1667318053.344129) vcan0 525#D100D100D100D100
(1667318053.352419) vcan0 521#33000000D9FF
(1667318053.352621) vcan0 525#D100D100D100D100
(1667318053.361526) vcan0 525#D100D100D100D100
(1667318053.371737) vcan0 521#31000000DBFF
(1667318053.371883) vcan0 525#D100D100D100D100
(1667318053.380926) vcan0 525#D100D100D100D100
(1667318053.391591) vcan0 521#2F000000DDFF
(1667318053.391758) vcan0 525#D100D100D100D100
(1667318053.404143) vcan0 525#D100D100D100D100
(1667318053.414230) vcan0 521#2C000000DFFF
(1667318053.414392) vcan0 525#D100D100D100D100
(1667318053.424731) vcan0 525#D100D100D100D100
(1667318053.436023) vcan0 521#2A000000E2FF
(1667318053.436178) vcan0 525#D100D100D100D100
(1667318053.448026) vcan0 525#D100D100D100D100
(1667318053.459415) vcan0 521#27000000E4FF
(1667318053.459573) vcan0 525#D100D100D100D100
(1667318053.471846) vcan0 525#D100D100D100D100
(1667318053.483110) vcan0 521#24000000E6FF
(1667318053.483263) vcan0 525#D100D100D100D100
(1667318053.483368) vcan0 526#7A2E
(1667318053.495072) vcan0 525#D100D100D100D100
(1667318053.506427) vcan0 521#22000000E9FF
(1667318053.506584) vcan0 525#D100D100D100D100
(1667318053.517415) vcan0 525#D100D100D100D100
(1667318053.527743) vcan0 521#1F000000EBFF
(1667318053.527897) vcan0 525#D100D100D100D100
(1667318053.538149) vcan0 525#D100D100D100D100
(1667318053.548304) vcan0 521#1C000000EEFF
(1667318053.548450) vcan0 525#D100D100D100D100
(1667318053.558234) vcan0 525#D100D100D100D100
(1667318053.568358) vcan0 521#1A000000F0FF
(1667318053.568513) vcan0 525#D100D100D100D100
(1667318053.578443) vcan0 525#D100D100D100D100
(1667318053.588158) vcan0 521#17000000F3FF
(1667318053.588384) vcan0 525#D100D100D100D100
(1667318053.599248) vcan0 525#D100D100D100D100
(1667318053.607157) vcan0 521#14000000F6FF
(1667318053.607317) vcan0 525#D100D100D100D100
(1667318053.614225) vcan0 525#D100D100D100D100
(1667318053.622856) vcan0 521#11000000F8FF
(1667318053.623022) vcan0 525#D100D100D100D100
(1667318053.631448) vcan0 525#D100D100D100D100
(1667318053.640070) vcan0 521#0E000000FBFF
(1667318053.640189) vcan0 525#D100D100D100D100
(1667318053.649389) vcan0 525#D100D100D100D100
(1667318053.659019) vcan0 521#0C000000FEFF
(1667318053.659189) vcan0 525#D100D100D100D100
(1667318053.668308) vcan0 525#D100D100D100D100
(1667318053.679052) vcan0 521#090000000100
(1667318053.679173) vcan0 525#D100D100D100D100
(1667318053.679254) vcan0 526#6F2E
(1667318053.689811) vcan0 525#D100D100D100D100
(1667318053.700462) vcan0 521#060000000400
(1667318053.700586) vcan0 525#D100D100D100D100
(1667318053.711898) vcan0 525#D100D100D100D100
(1667318053.722967) vcan0 521#030000000600
(1667318053.723069) vcan0 525#D100D100D100D100
(1667318053.734600) vcan0 525#D100D100D100D100
(1667318053.745775) vcan0 521#000000000900
(1667318053.745870) vcan0 525#D100D100D100D100
(1667318053.758895) vcan0 525#D100D100D100D100
(1667318053.770271) vcan0 521#FEFF00000C00
(1667318053.770374) vcan0 525#D100D100D100D100
(1667318053.782338) vcan0 525#D100D100D100D100
(1667318053.793694) vcan0 521#FBFF00000F00
(1667318053.793838) vcan0 525#D100D100D100D100
(1667318053.804900) vcan0 525#D100D100D100D100
(1667318053.815322) vcan0 521#F8FF00001200
(1667318053.815635) vcan0 525#D100D100D100D100
(1667318053.825557) vcan0 525#D100D100D100D100
(1667318053.836672) vcan0 521#F6FF00001400
(1667318053.836884) vcan0 525#D100D100D100D100
(1667318053.845898) vcan0 525#D100D100D100D100
(1667318053.856487) vcan0 521#F3FF00001700
(1667318053.856704) vcan0 525#D100D100D100D100
(1667318053.867019) vcan0 525#D100D100D100D100
(1667318053.874767) vcan0 521#F1FF00001A00
(1667318053.874970) vcan0 525#D100D100D100D100
(1667318053.886001) vcan0 525#D100D100D100D100
(1667318053.894134) vcan0 521#EEFF00001D00
(1667318053.894278) vcan0 525#D100D100D100D100
(1667318053.894376) vcan0 526#662E
(1667318053.903250) vcan0 525#D100D100D100D100
(1667318053.912234) vcan0 521#ECFF00001F00
(1667318053.912387) vcan0 525#D100D100D100D100
(1667318053.920881) vcan0 525#D100D100D100D100
(1667318053.930324) vcan0 521#E9FF00002200
(1667318053.930440) vcan0 525#D100D100D100D100
(1667318053.940314) vcan0 525#D100D100D100D100
(1667318053.949743) vcan0 521#E7FF00002400
(1667318053.949889) vcan0 525#D100D100D100D100
(1667318053.960023) vcan0 525#D100D100D100D100
(1667318053.971119) vcan0 521#E5FF00002700
(1667318053.971235) vcan0 525#D100D100D100D100
(1667318053.981416) vcan0 525#D100D100D100D100
(1667318053.992566) vcan0 521#E3FF00002900
(1667318053.992683) vcan0 525#D100D100D100D100
(1667318054.004045) vcan0 525#D100D100D100D100
(1667318054.017618) vcan0 521#E1FF00002C00
(1667318054.017714) vcan0 525#D100D100D100D100
(1667318054.027529) vcan0 525#D100D100D100D100
(1667318054.039906) vcan0 521#DFFF00002E00
(1667318054.039968) vcan0 525#D100D100D100D100
(1667318054.051867) vcan0 525#D100D100D100D100
(1667318054.063869) vcan0 521#DDFF00003000
(1667318054.063944) vcan0 525#D100D100D100D100
(1667318054.075726) vcan0 525#D100D100D100D100
(1667318054.085925) vcan0 521#DBFF00003300
(1667318054.086036) vcan0 525#D100D100D100D100
(1667318054.096148) vcan0 525#D100D100D100D100
(1667318054.107735) vcan0 521#D9FF00003500
(1667318054.107901) vcan0 525#D100D100D100D100
(1667318054.108018) vcan0 526#5B2E
(1667318054.118850) vcan0 525#D100D100D100D100
(1667318054.128504) vcan0 521#D8FF00003700
(1667318054.128690) vcan0 525#D100D100D100D100
(1667318054.138175) vcan0 525#D100D100D100D100
(1667318054.147939) vcan0 521#D6FF00003900
(1667318054.148121) vcan0 525#D100D100D100D100
(1667318054.156688) vcan0 525#D100D100D100D100
(1667318054.165385) vcan0 521#D5FF00003B00
(1667318054.165563) vcan0 525#D100D100D100D100
(1667318054.174027) vcan0 525#D100D100D100D100
(1667318054.183946) vcan0 521#D3FF00003C00
(1667318054.184123) vcan0 525#D100D100D100D100
(1667318054.193576) vcan0 525#D100D100D100D100
(1667318054.203411) vcan0 521#D2FF00003E00
(1667318054.203565) vcan0 525#D100D100D100D100
(1667318054.214028) vcan0 525#D100D100D100D100
(1667318054.224774) vcan0 521#D1FF00004000
(1667318054.224951) vcan0 525#D100D100D100D100
(1667318054.235431) vcan0 525#D100D100D100D100
(1667318054.246303) vcan0 521#D0FF00004100
(1667318054.246461) vcan0 525#D100D100D100D100
(1667318054.258325) vcan0 525#D100D100D100D100
(1667318054.270135) vcan0 521#CFFF00004300
(1667318054.270314) vcan0 525#D100D100D100D100
(1667318054.282079) vcan0 525#D100D100D100D100
(1667318054.294625) vcan0 521#CFFF00004400
(1667318054.294769) vcan0 525#D100D100D100D100
(1667318054.307652) vcan0 525#D100D100D100D100
(1667318054.320511) vcan0 521#CEFF00004500
(1667318054.320688) vcan0 525#D100D100D100D100
(1667318054.320818) vcan0 526#512E
(1667318054.333162) vcan0 525#D100D100D100D100
(1667318054.345070) vcan0 521#CDFF00004600
(1667318054.345199) vcan0 525#D100D100D100D100
(1667318054.356104) vcan0 525#D100D100D100D100
(1667318054.367161) vcan0 521#CDFF00004700
(1667318054.367298) vcan0 525#D100D100D100D100
(1667318054.377857) vcan0 525#D100D100D100D100
(1667318054.388738) vcan0 521#CDFF00004800
(1667318054.388899) vcan0 525#D100D100D100D100
(1667318054.398441) vcan0 525#D100D100D100D100
(1667318054.408253) vcan0 521#CDFF00004900
(1667318054.408379) vcan0 525#D100D100D100D100
(1667318054.417714) vcan0 525#D100D100D100D100
(1667318054.426585) vcan0 521#CCFF00004900
(1667318054.426765) vcan0 525#D100D100D100D100
(1667318054.435155) vcan0 525#D100D100D100D100
(1667318054.443901) vcan0 521#CDFF00004A00
(1667318054.444090) vcan0 525#D100D100D100D100
(1667318054.452589) vcan0 525#D100D100D100D100
(1667318054.462311) vcan0 521#CDFF00004A00
(1667318054.462459) vcan0 525#D100D100D100D100
(1667318054.471755) vcan0 525#D100D100D100D100
(1667318054.481834) vcan0 521#CDFF00004A00
(1667318054.482005) vcan0 525#D100D100D100D100
(1667318054.492564) vcan0 525#D100D100D100D100
(1667318054.503639) vcan0 521#CDFF00004A00
(1667318054.503810) vcan0 525#D100D100D100D100
(1667318054.514978) vcan0 525#D100D100D100D100
(1667318054.525275) vcan0 521#CEFF00004A00
(1667318054.525511) vcan0 525#D100D100D100D100
(1667318054.525680) vcan0 526#462E
(1667318054.537390) vcan0 525#D100D100D100D100
(1667318054.548788) vcan0 521#CFFF00004A00
(1667318054.549086) vcan0 525#D100D100D100D100
(1667318054.560426) vcan0 525#D100D100D100D100
(1667318054.572883) vcan0 521#CFFF00004A00
(1667318054.573044) vcan0 525#D100D100D100D100
(1667318054.584606) vcan0 525#D100D100D100D100
(1667318054.595896) vcan0 521#D0FF00004A00
(1667318054.596061) vcan0 525#D100D100D100D100
(1667318054.608389) vcan0 525#D100D100D100D100
(1667318054.620672) vcan0 521#D1FF00004900
(1667318054.620922) vcan0 525#D100D100D100D100
(1667318054.632747) vcan0 525#D100D100D100D100
(1667318054.642812) vcan0 521#D2FF00004900
(1667318054.642923) vcan0 525#D100D100D100D100
(1667318054.653117) vcan0 525#D100D100D100D100
(1667318054.662378) vcan0 521#D3FF00004800
(1667318054.662461) vcan0 525#D100D100D100D100
(1667318054.673405) vcan0 525#D100D100D100D100
(1667318054.682517) vcan0 521#D5FF00004700
(1667318054.682660) vcan0 525#D100D100D100D100
(1667318054.691329) vcan0 525#D100D100D100D100
(1667318054.700152) vcan0 521#D6FF00004600
(1667318054.700223) vcan0 525#D100D100D100D100
(1667318054.716845) vcan0 525#D100D100D100D100
(1667318054.724086) vcan0 521#D8FF00004500
(1667318054.724160) vcan0 525#D100D100D100D100
(1667318054.732017) vcan0 525#D100D100D100D100
(1667318054.739764) vcan0 521#D9FF00004400
(1667318054.739836) vcan0 525#D100D100D100D100
(1667318054.739882) vcan0 526#3C2E
(1667318054.748160) vcan0 525#D100D100D100D100
(1667318054.756604) vcan0 521#DBFF00004300
(1667318054.756659) vcan0 525#D100D100D100D100
(1667318054.765500) vcan0 525#D100D100D100D100
(1667318054.775334) vcan0 521#DDFF00004100
(1667318054.775387) vcan0 525#D100D100D100D100
(1667318054.785392) vcan0 525#D100D100D100D100
(1667318054.794913) vcan0 521#DEFF00004000
(1667318054.794967) vcan0 525#D100D100D100D100
(1667318054.805803) vcan0 525#D100D100D100D100
(1667318054.824477) vcan0 521#E0FF00003E00
(1667318054.824540) vcan0 525#D100D100D100D100
(1667318054.835302) vcan0 525#D100D100D100D100
(1667318054.845935) vcan0 521#E2FF00003D00
(1667318054.846002) vcan0 525#D100D100D100D100
(1667318054.858296) vcan0 525#D100D100D100D100
(1667318054.870067) vcan0 521#E5FF00003B00
(1667318054.870121) vcan0 525#D100D100D100D100
(1667318054.881224) vcan0 525#D100D100D100D100
(1667318054.891883) vcan0 521#E7FF00003900
(1667318054.891938) vcan0 525#D100D100D100D100
(1667318054.902980) vcan0 525#D100D100D100D100
(1667318054.914873) vcan0 521#E9FF00003700
(1667318054.915124) vcan0 525#D100D100D100D100
(1667318054.929266) vcan0 525#D100D100D100D100
(1667318054.939698) vcan0 521#EBFF00003500
(1667318054.939854) vcan0 525#D100D100D100D100
(1667318054.948489) vcan0 525#D100D100D100D100
(1667318054.958478) vcan0 521#EEFF00003300
(1667318054.958558) vcan0 525#D100D100D100D100
(1667318054.958608) vcan0 526#342E
(1667318054.967045) vcan0 525#D100D100D100D100
(1667318054.975923) vcan0 521#F0FF00003100
(1667318054.976002) vcan0 525#D100D100D100D100
(1667318054.984117) vcan0 525#D100D100D100D100
(1667318054.991976) vcan0 521#F3FF00002E00
(1667318054.992051) vcan0 525#D100D100D100D100
(1667318055.001109) vcan0 525#D100D100D100D100
(1667318055.010017) vcan0 521#F5FF00002C00
(1667318055.010093) vcan0 525#D100D100D100D100
(1667318055.018231) vcan0 525#D100D100D100D100
(1667318055.027526) vcan0 521#F8FF00002A00
(1667318055.027612) vcan0 525#D100D100D100D100
(1667318055.037013) vcan0 525#D100D100D100D100
(1667318055.046252) vcan0 521#FBFF00002700
(1667318055.046355) vcan0 525#D100D100D100D100
(1667318055.056546) vcan0 525#D100D100D100D100
(1667318055.066925) vcan0 521#FDFF00002500
(1667318055.067032) vcan0 525#D100D100D100D100
(1667318055.077211) vcan0 525#D100D100D100D100
(1667318055.087884) vcan0 521#000000002200
(1667318055.088007) vcan0 525#D100D100D100D100
(1667318055.099546) vcan0 525#D100D100D100D100
(1667318055.111586) vcan0 521#030000001F00
(1667318055.111736) vcan0 525#D100D100D100D100
(1667318055.123894) vcan0 525#D100D100D100D100
(1667318055.136752) vcan0 521#050000001D00
(1667318055.136899) vcan0 525#D100D100D100D100
(1667318055.147576) vcan0 525#D100D100D100D100
(1667318055.158949) vcan0 521#080000001A00
(1667318055.159098) vcan0 525#D100D100D100D100
(1667318055.159225) vcan0 526#2B2E
(1667318055.170497) vcan0 525#D100D100D100D100
(1667318055.180621) vcan0 521#0B0000001700
(1667318055.180767) vcan0 525#D100D100D100D100
(1667318055.191406) vcan0 525#D100D100D100D100
(1667318055.202318) vcan0 521#0E0000001400
(1667318055.202469) vcan0 525#D100D100D100D100
(1667318055.212903) vcan0 525#D100D100D100D100
(1667318055.222949) vcan0 521#110000001200
(1667318055.223167) vcan0 525#D100D100D100D100
(1667318055.236141) vcan0 525#D100D100D100D100
(1667318055.244040) vcan0 521#130000000F00
(1667318055.244151) vcan0 525#D100D100D100D100
(1667318055.252284) vcan0 525#D100D100D100D100
(1667318055.261338) vcan0 521#160000000C00
(1667318055.261432) vcan0 525#D100D100D100D100
(1667318055.269950) vcan0 525#D100D100D100D100
(1667318055.278240) vcan0 521#190000000900
(1667318055.278339) vcan0 525#D100D100D100D100
(1667318055.286935) vcan0 525#D100D100D100D100
(1667318055.296044) vcan0 521#1C0000000600
(1667318055.296141) vcan0 525#D100D100D100D100
(1667318055.306000) vcan0 525#D100D100D100D100
(1667318055.315959) vcan0 521#1E0000000300
(1667318055.316082) vcan0 525#D100D100D100D100
(1667318055.326858) vcan0 525#D100D100D100D100
(1667318055.337395) vcan0 521#210000000100
(1667318055.337537) vcan0 525#D100D100D100D100
(1667318055.348227) vcan0 525#D100D100D100D100
(1667318055.359531) vcan0 521#24000000FEFF
(1667318055.359889) vcan0 525#D100D100D100D100
(1667318055.360071) vcan0 526#1F2E
(1667318055.371525) vcan0 525#D100D100D100D100
(1667318055.382985) vcan0 521#26000000FBFF
(1667318055.383224) vcan0 525#D100D100D100D100
(1667318055.394340) vcan0 525#D100D100D100D100
(1667318055.406659) vcan0 521#29000000F8FF
(1667318055.406933) vcan0 525#D100D100D100D100
(1667318055.418380) vcan0 525#D100D100D100D100
(1667318055.429581) vcan0 521#2B000000F5FF
(1667318055.429789) vcan0 525#D100D100D100D100
(1667318055.441806) vcan0 525#D100D100D100D100
(1667318055.451950) vcan0 521#2E000000F3FF
(1667318055.452161) vcan0 525#D100D100D100D100
(1667318055.463112) vcan0 525#D100D100D100D100
(1667318055.473012) vcan0 521#30000000F0FF
(1667318055.473164) vcan0 525#D100D100D100D100
(1667318055.483982) vcan0 525#D100D100D100D100
(1667318055.493367) vcan0 521#33000000EDFF
(1667318055.493520) vcan0 525#D100D100D100D100
(1667318055.503352) vcan0 525#D100D100D100D100
(1667318055.512480) vcan0 521#35000000EBFF
(1667318055.512633) vcan0 525#D100D100D100D100
(1667318055.520972) vcan0 525#D100D100D100D100
(1667318055.529234) vcan0 521#37000000E8FF
(1667318055.529389) vcan0 525#D100D100D100D100
(1667318055.540682) vcan0 525#D100D100D100D100
(1667318055.549450) vcan0 521#39000000E6FF
(1667318055.549568) vcan0 525#D100D100D100D100
(1667318055.558746) vcan0 525#D100D100D100D100
(1667318055.568458) vcan0 521#3B000000E4FF
(1667318055.568539) vcan0 525#D100D100D100D100
(1667318055.568593) vcan0 526#142E
(1667318055.578945) vcan0 525#D100D100D100D100
(1667318055.589776) vcan0 521#3D000000E1FF
(1667318055.589855) vcan0 525#D100D100D100D100
(1667318055.600911) vcan0 525#D100D100D100D100
(1667318055.611912) vcan0 521#3F000000DFFF
(1667318055.611998) vcan0 525#D100D100D100D100
(1667318055.623592) vcan0 525#D100D100D100D100
(1667318055.634924) vcan0 521#41000000DDFF
(1667318055.635028) vcan0 525#D100D100D100D100
(1667318055.647454) vcan0 525#D100D100D100D100
(1667318055.659879) vcan0 521#42000000DBFF
(1667318055.660098) vcan0 525#D100D100D100D100
(1667318055.671246) vcan0 525#D100D100D100D100
(1667318055.682504) vcan0 521#44000000D9FF
(1667318055.682704) vcan0 525#D100D100D100D100
(1667318055.693598) vcan0 525#D100D100D100D100
(1667318055.703984) vcan0 521#45000000D7FF
(1667318055.704197) vcan0 525#D100D100D100D100
(1667318055.714345) vcan0 525#D100D100D100D100
(1667318055.725443) vcan0 521#46000000D5FF
(1667318055.725656) vcan0 525#D100D100D100D100
(1667318055.734772) vcan0 525#D100D100D100D100
(1667318055.744039) vcan0 521#48000000D4FF
(1667318055.744241) vcan0 525#D100D100D100D100
(1667318055.753873) vcan0 525#D100D100D100D100
(1667318055.761553) vcan0 521#49000000D2FF
(1667318055.761704) vcan0 525#D100D100D100D100
(1667318055.770505) vcan0 525#D100D100D100D100
(1667318055.779242) vcan0 521#4A000000D1FF
(1667318055.779393) vcan0 525#D100D100D100D100
(1667318055.779498) vcan0 526#092E
(1667318055.788950) vcan0 525#D100D100D100D100
(1667318055.798940) vcan0 521#4A000000CFFF
(1667318055.799090) vcan0 525#D100D100D100D100
(1667318055.808659) vcan0 525#D100D100D100D100
(1667318055.819650) vcan0 521#4B000000CEFF
(1667318055.819842) vcan0 525#D100D100D100D100
(1667318055.830394) vcan0 525#D100D100D100D100
(1667318055.842552) vcan0 521#4C000000CDFF
(1667318055.842717) vcan0 525#D100D100D100D100
(1667318055.851336) vcan0 525#D100D100D100D100
(1667318055.862118) vcan0 521#4C000000CCFF
(1667318055.862205) vcan0 525#D100D100D100D100
(1667318055.873514) vcan0 525#D100D100D100D100
(1667318055.885271) vcan0 521#4C000000CBFF
(1667318055.885354) vcan0 525#D100D100D100D100
(1667318055.897624) vcan0 525#D100D100D100D100
(1667318055.909437) vcan0 521#4D000000CBFF
(1667318055.909531) vcan0 525#D100D100D100D100
(1667318055.920792) vcan0 525#D100D100D100D100
(1667318055.932492) vcan0 521#4D000000CAFF
(1667318055.932644) vcan0 525#D100D100D100D100
(1667318055.943523) vcan0 525#D100D100D100D100
(1667318055.953942) vcan0 521#4D000000CAFF
(1667318055.954151) vcan0 525#D100D100D100D100
(1667318055.964893) vcan0 525#D100D100D100D100
(1667318055.975475) vcan0 521#4C000000C9FF
(1667318055.975625) vcan0 525#D100D100D100D100
(1667318055.984597) vcan0 525#D100D100D100D100
(1667318055.994665) vcan0 521#4C000000C9FF
(1667318055.994814) vcan0 525#D100D100D100D100
(1667318055.994917) vcan0 526#012E
(1667318056.004181) vcan0 525#D100D100D100D100
(1667318056.012244) vcan0 521#4C000000C9FF
(1667318056.012392) vcan0 525#D100D100D100D100
(1667318056.021219) vcan0 525#D100D100D100D100
(1667318056.029718) vcan0 521#4B000000C9FF
(1667318056.029867) vcan0 525#D100D100D100D100
(1667318056.039562) vcan0 525#D100D100D100D100
(1667318056.048646) vcan0 521#4A000000C9FF
(1667318056.048796) vcan0 525#D100D100D100D100
(1667318056.058863) vcan0 525#D100D100D100D100
(1667318056.069998) vcan0 521#4A000000C9FF
(1667318056.070162) vcan0 525#D100D100D100D100
(1667318056.080368) vcan0 525#D100D100D100D100
(1667318056.091541) vcan0 521#49000000CAFF
(1667318056.091692) vcan0 525#D100D100D100D100
(1667318056.102281) vcan0 525#D100D100D100D100
(1667318056.113357) vcan0 521#48000000CAFF
(1667318056.113505) vcan0 525#D100D100D100D100
(1667318056.125387) vcan0 525#D100D100D100D100
(1667318056.136589) vcan0 521#46000000CBFF
(1667318056.136740) vcan0 525#D100D100D100D100
(1667318056.152239) vcan0 525#D100D100D100D100
(1667318056.162074) vcan0 521#45000000CCFF
(1667318056.162167) vcan0 525#D100D100D100D100
(1667318056.173765) vcan0 525#D100D100D100D100
(1667318056.185626) vcan0 521#44000000CDFF
(1667318056.185704) vcan0 525#D100D100D100D100
(1667318056.195791) vcan0 525#D100D100D100D100
(1667318056.206641) vcan0 521#42000000CEFF
(1667318056.206721) vcan0 525#D100D100D100D100
(1667318056.206772) vcan0 526#F52D
(1667318056.217295) vcan0 525#D100D100D100D100
(1667318056.228211) vcan0 521#40000000CFFF
(1667318056.228301) vcan0 525#D100D100D100D100
(1667318056.237851) vcan0 525#D100D100D100D100
(1667318056.248005) vcan0 521#3F000000D0FF
(1667318056.248102) vcan0 525#D100D100D100D100
(1667318056.257410) vcan0 525#D100D100D100D100
(1667318056.265584) vcan0 521#3D000000D2FF
(1667318056.265685) vcan0 525#D100D100D100D100
(1667318056.274365) vcan0 525#D100D100D100D100
(1667318056.283085) vcan0 521#3B000000D3FF
(1667318056.283236) vcan0 525#D100D100D100D100
(1667318056.293021) vcan0 525#D100D100D100D100
(1667318056.302334) vcan0 521#39000000D5FF
(1667318056.302432) vcan0 525#D100D100D100D100
(1667318056.311484) vcan0 525#D100D100D100D100
(1667318056.321867) vcan0 521#37000000D6FF
(1667318056.321984) vcan0 525#D100D100D100D100
(1667318056.332233) vcan0 525#D100D100D100D100
(1667318056.342718) vcan0 521#35000000D8FF
(1667318056.342819) vcan0 525#D100D100D100D100
(1667318056.352971) vcan0 525#D100D100D100D100
(1667318056.364318) vcan0 521#32000000DAFF
(1667318056.364422) vcan0 525#D100D100D100D100
(1667318056.375622) vcan0 525#D100D100D100D100
(1667318056.387076) vcan0 521#30000000DCFF
(1667318056.387198) vcan0 525#D100D100D100D100
(1667318056.400225) vcan0 525#D100D100D100D100
(1667318056.411819) vcan0 521#2E000000DEFF
(1667318056.411940) vcan0 525#D100D100D100D100
(1667318056.412021) vcan0 526#EB2D
(1667318056.423767) vcan0 525#D100D100D100D100
(1667318056.435514) vcan0 521#2B000000E0FF
(1667318056.435682) vcan0 525#D100D100D100D100
(1667318056.445505) vcan0 525#D100D100D100D100
(1667318056.456678) vcan0 521#29000000E2FF
(1667318056.456799) vcan0 525#D100D100D100D100
(1667318056.466164) vcan0 525#D100D100D100D100
(1667318056.476620) vcan0 521#26000000E5FF
(1667318056.476737) vcan0 525#D100D100D100D100
(1667318056.486145) vcan0 525#D100D100D100D100
(1667318056.495425) vcan0 521#24000000E7FF
(1667318056.495583) vcan0 525#D100D100D100D100
(1667318056.505082) vcan0 525#D100D100D100D100
(1667318056.513467) vcan0 521#21000000EAFF
(1667318056.513585) vcan0 525#D100D100D100D100
(1667318056.521946) vcan0 525#D100D100D100D100
(1667318056.530368) vcan0 521#1E000000ECFF
(1667318056.530485) vcan0 525#D100D100D100D100
(1667318056.539614) vcan0 525#D100D100D100D100
(1667318056.548960) vcan0 521#1B000000EFFF
(1667318056.549082) vcan0 525#D100D100D100D100
(1667318056.558493) vcan0 525#D100D100D100D100
(1667318056.569105) vcan0 521#19000000F1FF
(1667318056.569227) vcan0 525#D100D100D100D100
(1667318056.580067) vcan0 525#D100D100D100D100
(1667318056.590549) vcan0 521#16000000F4FF
(1667318056.590673) vcan0 525#D100D100D100D100
(1667318056.601656) vcan0 525#D100D100D100D100
(1667318056.613122) vcan0 521#13000000F7FF
(1667318056.613243) vcan0 525#D100D100D100D100
(1667318056.613324) vcan0 526#E22D
(1667318056.624735) vcan0 525#D100D100D100D100
(1667318056.636341) vcan0 521#10000000F9FF
(1667318056.636464) vcan0 525#D100D100D100D100
(1667318056.649224) vcan0 525#E600E600E600E600
(1667318056.660925) vcan0 521#8B0000007700
(1667318056.661045) vcan0 525#FB00FB00FB00FB00
(1667318056.672774) vcan0 525#0F010F010F010F01
(1667318056.684563) vcan0 521#900000008000
(1667318056.684686) vcan0 525#2401240124012401
(1667318056.695442) vcan0 525#3901390139013901
(1667318056.706041) vcan0 521#900000008900
(1667318056.706166) vcan0 525#4E014E014E014E01
(1667318056.717147) vcan0 525#6301630163016301
(1667318056.728023) vcan0 521#8B0000009200
(1667318056.728146) vcan0 525#7801780178017801
(1667318056.737992) vcan0 525#8D018D018D018D01
(1667318056.747448) vcan0 521#840000009C00
(1667318056.747566) vcan0 525#A201A201A201A201
(1667318056.758004) vcan0 525#B601B601B601B601
(1667318056.765357) vcan0 521#79000000A800
(1667318056.765481) vcan0 525#CB01CB01CB01CB01
(1667318056.773952) vcan0 525#E001E001E001E001
(1667318056.782092) vcan0 521#6B000000B600
(1667318056.782190) vcan0 525#F501F501F501F501
(1667318056.791647) vcan0 525#0A020A020A020A02
(1667318056.800971) vcan0 521#5B000000C700
(1667318056.801078) vcan0 525#1F021F021F021F02
(1667318056.810032) vcan0 525#3402340234023402
(1667318056.820524) vcan0 521#49000000DC00
(1667318056.820626) vcan0 525#4902490249024902
(1667318056.820692) vcan0 526#D92D
(1667318056.830619) vcan0 525#5E025E025D025D02
(1667318056.841055) vcan0 521#34000000F400
(1667318056.841153) vcan0 525#7302730272027202
(1667318056.851682) vcan0 525#8702870287028702
(1667318056.863104) vcan0 521#1E0000000E01
(1667318056.863203) vcan0 525#9C029C029C029C02
(1667318056.874650) vcan0 525#B102B102B102B102
(1667318056.886089) vcan0 521#070000002A01
(1667318056.886189) vcan0 525#C602C602C602C602
(1667318056.899014) vcan0 525#DB02DB02DB02DB02
(1667318056.911997) vcan0 521#F0FF00004701
(1667318056.912119) vcan0 525#F002F002F002F002
(1667318056.923411) vcan0 525#0503050304030403
(1667318056.934585) vcan0 521#DBFF00006401
(1667318056.934707) vcan0 525#1A031A0319031903
(1667318056.945902) vcan0 525#2F032F032E032E03
(1667318056.956859) vcan0 521#C9FF00007F01
(1667318056.956979) vcan0 525#4403440343034303
(1667318056.967078) vcan0 525#5803580358035803
(1667318056.978071) vcan0 521#BCFF00009601
(1667318056.978189) vcan0 525#6D036D036D036D03
(1667318056.988323) vcan0 525#8203820382038203
(1667318056.998388) vcan0 521#B6FF0000A801
(1667318056.998501) vcan0 525#9703970397039703
(1667318057.007679) vcan0 525#AC03AC03AB03AB03
(1667318057.017324) vcan0 521#B9FF0000B101
(1667318057.017438) vcan0 525#C103C103C003C003
(1667318057.026174) vcan0 525#D603D603D503D503
(1667318057.034713) vcan0 521#C7FF0000B101
(1667318057.034830) vcan0 525#EB03EB03EA03EA03
(1667318057.034910) vcan0 526#CE2D
(1667318057.043296) vcan0 525#FF03FF03FF03FF03
(1667318057.053137) vcan0 521#E2FF0000A401
(1667318057.053254) vcan0 525#1404140414041404
(1667318057.063551) vcan0 525#2904290429042904
(1667318057.072275) vcan0 521#0C0000008901
(1667318057.072399) vcan0 525#3E043E043E043E04
(1667318057.082261) vcan0 525#5304530453045304
(1667318057.092807) vcan0 521#430000005E01
(1667318057.092919) vcan0 525#6804680468046804
(1667318057.103601) vcan0 525#7D047D047C047C04
(1667318057.113942) vcan0 521#890000002501
(1667318057.114075) vcan0 525#9204920491049104
(1667318057.125886) vcan0 525#A604A604A604A604
(1667318057.137321) vcan0 521#DA000000DE00
(1667318057.137445) vcan0 525#BB04BB04BB04BB04
(1667318057.149228) vcan0 525#D004D004D004D004
(1667318057.161600) vcan0 521#320100008C00
(1667318057.161718) vcan0 525#E504E504E504E504
(1667318057.174390) vcan0 525#FA04FA04FA04FA04
(1667318057.185823) vcan0 521#8B0100003500
(1667318057.185946) vcan0 525#0F050F050F050F05
(1667318057.197707) vcan0 525#2305230524052405
(1667318057.209055) vcan0 521#DD010000DFFF
(1667318057.209172) vcan0 525#3805380539053905
(1667318057.219879) vcan0 525#4D054D054E054E05
(1667318057.230305) vcan0 521#2002000093FF
(1667318057.230421) vcan0 525#6205620563056305
(1667318057.241130) vcan0 525#7705770578057805
(1667318057.251785) vcan0 521#4B02000059FF
(1667318057.251971) vcan0 525#8C058C058C058C05
(1667318057.252104) vcan0 526#C72D
(1667318057.261282) vcan0 525#A105A105A105A105
(1667318057.270712) vcan0 521#560200003CFF
(1667318057.270838) vcan0 525#B505B505B605B605
(1667318057.279714) vcan0 525#CA05CA05CB05CB05
(1667318057.288870) vcan0 521#3C02000041FF
(1667318057.288987) vcan0 525#DF05DF05E005E005
(1667318057.297917) vcan0 525#F405F405F505F505
(1667318057.306450) vcan0 521#FC0100006CFF
(1667318057.306569) vcan0 525#090609060A060A06
(1667318057.316186) vcan0 525#1E061E061F061F06
(1667318057.325676) vcan0 521#98010000BFFF
(1667318057.325794) vcan0 525#3306330633063306
(1667318057.334989) vcan0 525#4806480648064806
(1667318057.345321) vcan0 521#190100003300
(1667318057.345437) vcan0 525#5D065D065D065D06
(1667318057.356461) vcan0 525#7206720672067206
(1667318057.367927) vcan0 521#8D000000C100
(1667318057.368042) vcan0 525#8706870687068706
(1667318057.378238) vcan0 525#9C069C069C069C06
(1667318057.389466) vcan0 521#030000005801
(1667318057.389586) vcan0 525#B106B106B006B006
(1667318057.401539) vcan0 525#C606C606C506C506
(1667318057.412876) vcan0 521#8DFF0000E901
(1667318057.413035) vcan0 525#DB06DB06DA06DA06
(1667318057.424080) vcan0 525#F006F006EF06EF06
(1667318057.435503) vcan0 521#3CFF00006102
(1667318057.435663) vcan0 525#0407040704070407
(1667318057.446905) vcan0 525#1907190719071907
(1667318057.458063) vcan0 521#20FF0000AC02
(1667318057.458255) vcan0 525#2E072E072D072D07
(1667318057.458389) vcan0 526#BC2D
(1667318057.468632) vcan0 525#4307430742074207
(1667318057.479760) vcan0 521#43FF0000BB02
(1667318057.479944) vcan0 525#5807580757075707
(1667318057.490238) vcan0 525#6D076D076C076C07
(1667318057.499586) vcan0 521#A7FF00008402
(1667318057.499774) vcan0 525#8207820781078107
(1667318057.509644) vcan0 525#9607960796079607
(1667318057.519721) vcan0 521#450000000702
(1667318057.520013) vcan0 525#AB07AB07AB07AB07
(1667318057.529027) vcan0 525#C007C007C007C007
(1667318057.537435) vcan0 521#0A0100005001
(1667318057.537656) vcan0 525#D507D507D507D507
(1667318057.547149) vcan0 525#EA07EA07EA07EA07
(1667318057.557060) vcan0 521#D60100007C00
(1667318057.557264) vcan0 525#FE07FE07FF07FF07
(1667318057.566478) vcan0 525#1308130814081408
(1667318057.577483) vcan0 521#84020000AEFF
(1667318057.577652) vcan0 525#2808280829082908
(1667318057.588362) vcan0 525#3D083D083E083E08
(1667318057.599185) vcan0 521#EC02000012FF
(1667318057.599314) vcan0 525#5208520853085308
(1667318057.609883) vcan0 525#6708670868086808
(1667318057.622045) vcan0 521#F2020000CBFE
(1667318057.622183) vcan0 525#7B087B087C087C08
(1667318057.633592) vcan0 525#9008900891089108
(1667318057.645165) vcan0 521#8D020000F1FE
(1667318057.645256) vcan0 525#A508A508A608A608
(1667318057.657260) vcan0 525#BA08BA08BB08BB08
(1667318057.668982) vcan0 521#CF01000081FF
(1667318057.669058) vcan0 525#CF08CF08D008D008
(1667318057.669096) vcan0 526#B22D
(1667318057.680263) vcan0 525#E408E408E508E508
(1667318057.691630) vcan0 521#DF0000006300
(1667318057.691688) vcan0 525#F908F908F908F908
(1667318057.702051) vcan0 525#0E090E090E090E09
(1667318057.712784) vcan0 521#F0FF00006D01
(1667318057.712877) vcan0 525#2309230923092309
(1667318057.723754) vcan0 525#3809380938093809
(1667318057.734664) vcan0 521#3AFF00006602
(1667318057.734864) vcan0 525#4D094D094C094C09
(1667318057.744483) vcan0 525#6209620961096109
(1667318057.753692) vcan0 521#E9FE00001703
(1667318057.753862) vcan0 525#7709770976097609
(1667318057.763475) vcan0 525#8C098C098B098B09
(1667318057.771886) vcan0 521#19FF00004D03
(1667318057.772053) vcan0 525#A109A109A009A009
(1667318057.780309) vcan0 525#B609B609B509B509
(1667318057.790614) vcan0 521#CAFF0000EE02
(1667318057.790880) vcan0 525#CA09CA09CA09CA09
(1667318057.800315) vcan0 525#DF09DF09DF09DF09
(1667318057.809163) vcan0 521#DB0000000602
(1667318057.809296) vcan0 525#F409F409F409F409
(1667318057.819779) vcan0 525#090A090A090A090A
(1667318057.830331) vcan0 521#09020000C900
(1667318057.830456) vcan0 525#1D0A1D0A1E0A1E0A
(1667318057.840608) vcan0 525#320A320A330A330A
(1667318057.850981) vcan0 521#C0020000BFFF
(1667318057.851112) vcan0 525#470A470A480A480A
(1667318057.863072) vcan0 525#5C0A5C0A5C0A5D0A
(1667318057.874740) vcan0 521#AA0100005D00
(1667318057.874865) vcan0 525#710A710A710A720A
(1667318057.874982) vcan0 526#AC2D
(1667318057.885757) vcan0 525#860A860A860A860A
(1667318057.898317) vcan0 521#FE010000CBFF
(1667318057.898443) vcan0 525#9B0A9B0A9B0A9B0A
(1667318057.909587) vcan0 525#B00AB00AB00AB00A
(1667318057.921097) vcan0 521#75010000D4FF
(1667318057.921226) vcan0 525#C50AC50AC50AC50A
(1667318057.932610) vcan0 525#DA0ADA0ADA0ADA0A
(1667318057.943273) vcan0 521#69000000C500
(1667318057.943400) vcan0 525#EF0AEF0AEF0AEF0A
(1667318057.953733) vcan0 525#040B040B030B030B
(1667318057.964501) vcan0 521#5AFF00001002
(1667318057.964628) vcan0 525#190B190B180B180B
(1667318057.976170) vcan0 525#2E0B2E0B2D0B2D0B
(1667318057.985101) vcan0 521#B9FE00003803
(1667318057.985254) vcan0 525#430B430B420B420B
(1667318057.993908) vcan0 525#580B580B560B560B
(1667318058.003748) vcan0 521#CDFE0000C903
(1667318058.003838) vcan0 525#6C0B6C0B6B0B6B0B
(1667318058.012705) vcan0 525#810B810B800B800B
(1667318058.021654) vcan0 521#A9FF00007903
(1667318058.021739) vcan0 525#960B960B950B950B
(1667318058.030012) vcan0 525#AB0BAB0BAA0BAA0B
(1667318058.039890) vcan0 521#150100004B02
(1667318058.039987) vcan0 525#BF0BBF0BBF0BBF0B
(1667318058.049210) vcan0 525#D40BD40BD40BD40B
(1667318058.059149) vcan0 521#930200009F00
(1667318058.059239) vcan0 525#E90BE90BE90BE90B
(1667318058.069643) vcan0 525#FE0BFE0BFE0BFE0B
(1667318058.080483) vcan0 521#AB0000008E01
(1667318058.080572) vcan0 525#130C130C130C130C
(1667318058.080630) vcan0 526#A12D
(1667318058.091205) vcan0 525#280C280C280C280C
(1667318058.101581) vcan0 521#AC0000004C01
(1667318058.101682) vcan0 525#3D0C3D0C3D0C3D0C
(1667318058.113344) vcan0 525#520C520C520C520C
(1667318058.126258) vcan0 521#AF000000BE00
(1667318058.126477) vcan0 525#670C670C670C670C
(1667318058.137489) vcan0 525#7B0C7B0C7B0C7B0C
(1667318058.150734) vcan0 521#B1000000AA00
(1667318058.150981) vcan0 525#900C900C900C900C
(1667318058.162344) vcan0 525#A50CA50CA50CA50C
(1667318058.173967) vcan0 521#000000007501
(1667318058.174360) vcan0 525#BA0CBA0CBA0CBA0C
(1667318058.186126) vcan0 525#CF0CCF0CCF0CCF0C
(1667318058.197173) vcan0 521#C5FE00005603
(1667318058.197410) vcan0 525#E40CE40CE30CE30C
(1667318058.207739) vcan0 525#F90CF90CF80CF80C
(1667318058.219195) vcan0 521#1CFF0000F903
(1667318058.219427) vcan0 525#0E0D0E0D0D0D0D0D
(1667318058.230160) vcan0 525#230D230D220D220D
(1667318058.239998) vcan0 521#770000004303
(1667318058.240229) vcan0 525#370D380D370D370D
(1667318058.249551) vcan0 525#4C0D4C0D4C0D4C0D
(1667318058.262103) vcan0 521#490200007901
(1667318058.262344) vcan0 525#610D610D610D610D
(1667318058.270510) vcan0 525#760D760D760D760D
(1667318058.281469) vcan0 521#CC000000C101
(1667318058.281635) vcan0 525#8B0D8B0D8B0D8B0D
(1667318058.295848) vcan0 525#A00DA00DA00DA00D
(1667318058.303042) vcan0 521#C00000006301
(1667318058.303225) vcan0 525#B50DB50DB50DB50D
(1667318058.303336) vcan0 526#972D
(1667318058.310290) vcan0 525#CA0DCA0DCA0DCA0D
(1667318058.317508) vcan0 521#C20000009100
(1667318058.317650) vcan0 525#DF0DDF0DDF0DDF0D
(1667318058.326137) vcan0 525#F30DF30DF30DF30D
(1667318058.334799) vcan0 521#C50000007400
(1667318058.334947) vcan0 525#080E080E080E080E
(1667318058.343141) vcan0 525#1D0E1D0E1D0E1D0E
(1667318058.352747) vcan0 521#C80000002201
(1667318058.352911) vcan0 525#320E320E320E320E
(1667318058.362257) vcan0 525#470E470E470E470E
(1667318058.371739) vcan0 521#CB0000006B02
(1667318058.371880) vcan0 525#5C0E5C0E5B0E5B0E
(1667318058.382221) vcan0 525#710E710E700E700E
(1667318058.392719) vcan0 521#3B0000006903
(1667318058.392859) vcan0 525#860E860E850E850E
(1667318058.403270) vcan0 525#9A0E9A0E9A0E9A0E
(1667318058.413671) vcan0 521#FB0100004102
(1667318058.413811) vcan0 525#AF0EAF0EAF0EAF0E
(1667318058.425189) vcan0 525#C40EC40EC40EC40E
(1667318058.436637) vcan0 521#C20300000500
(1667318058.436775) vcan0 525#D80ED80ED90ED90E
(1667318058.448471) vcan0 525#EE0EEE0EEE0EEE0E
(1667318058.461034) vcan0 521#D1000000AD01
(1667318058.461209) vcan0 525#030F030F030F030F
(1667318058.473427) vcan0 525#180F180F180F180F
(1667318058.484884) vcan0 521#D40000008C00
(1667318058.485089) vcan0 525#2D0F2D0F2D0F2D0F
(1667318058.496354) vcan0 525#420F420F420F420F
(1667318058.507907) vcan0 521#D60000002F00
(1667318058.508087) vcan0 525#560F560F570F570F
(1667318058.508199) vcan0 526#8D2D
(1667318058.518428) vcan0 525#6B0F6B0F6B0F6B0F
(1667318058.528660) vcan0 521#D9000000FB00
(1667318058.528863) vcan0 525#800F800F800F800F
(1667318058.538825) vcan0 525#950F950F950F950F
(1667318058.549104) vcan0 521#67FF0000F302
(1667318058.549266) vcan0 525#AA0FAA0FA90FA90F
(1667318058.558673) vcan0 525#BF0FBF0FBE0FBE0F
(1667318058.567939) vcan0 521#B40000003203
(1667318058.568167) vcan0 525#D40FD40FD30FD30F
(1667318058.577134) vcan0 525#E80FE80FE80FE80F
(1667318058.589684) vcan0 521#DC020000BD01
(1667318058.589851) vcan0 525#FD0FFD0FFD0FFD0F
(1667318058.597032) vcan0 525#1210121013101310
(1667318058.606128) vcan0 521#6A020000DE00
(1667318058.606283) vcan0 525#2710271027102710
(1667318058.615462) vcan0 525#3C103C103C103C10
(1667318058.625699) vcan0 521#E30000002601
(1667318058.625863) vcan0 525#5110511051105110
(1667318058.635736) vcan0 525#5110511051105110
(1667318058.646653) vcan0 521#DC0000001E00
(1667318058.646862) vcan0 525#5110511051105110
(1667318058.657603) vcan0 525#5110511052105110
(1667318058.668413) vcan0 521#DE0000008BFD
(1667318058.668573) vcan0 525#5110511052105210
(1667318058.679403) vcan0 525#5110511051105110
(1667318058.691250) vcan0 521#DE000000DE00
(1667318058.691406) vcan0 525#5110511051105110
(1667318058.703175) vcan0 525#5110511051105110
(1667318058.715117) vcan0 521#F2FF0000EB02
(1667318058.715275) vcan0 525#5110511051105110
(1667318058.715385) vcan0 526#812D
(1667318058.727772) vcan0 525#5110511051105110
(1667318058.739606) vcan0 521#C80100000202
(1667318058.739766) vcan0 525#5110511051105110
(1667318058.751416) vcan0 525#5110511051105110
(1667318058.762764) vcan0 521#B80300006CFF
(1667318058.762923) vcan0 525#5010501051105110
(1667318058.773608) vcan0 525#5110511051105110
(1667318058.784346) vcan0 521#DC0000007E00
(1667318058.784502) vcan0 525#5110511051105110
(1667318058.795257) vcan0 525#5110511051105110
(1667318058.805968) vcan0 521#DC000000DB00
(1667318058.806173) vcan0 525#5110511051105110
(1667318058.815771) vcan0 525#5110511051105110
(1667318058.825500) vcan0 521#DD000000ADFE
(1667318058.825661) vcan0 525#5110511052105110
(1667318058.835258) vcan0 525#5110511051105210
(1667318058.844499) vcan0 521#DE000000D1FE
(1667318058.844721) vcan0 525#5110511052105210
(1667318058.852927) vcan0 525#5210511051105110
(1667318058.861135) vcan0 521#97FF0000CA02
(1667318058.861293) vcan0 525#5110511051105110
(1667318058.871026) vcan0 525#5110511051105110
(1667318058.881142) vcan0 521#190100009F02
(1667318058.881301) vcan0 525#5110511051105110
(1667318058.892917) vcan0 525#5110511051105110
(1667318058.902310) vcan0 521#380300004900
(1667318058.902479) vcan0 525#5110511051105110
(1667318058.913251) vcan0 525#5010501052105210
(1667318058.923587) vcan0 521#DD0000008400
(1667318058.923773) vcan0 525#5110511051105110
(1667318058.923904) vcan0 526#782D
(1667318058.934611) vcan0 525#5110511051105110
(1667318058.946573) vcan0 521#DC000000DB00
(1667318058.946757) vcan0 525#5110511051105110
(1667318058.958121) vcan0 525#5110511051105110
(1667318058.970255) vcan0 521#DC000000DB00
(1667318058.970505) vcan0 525#5110511051105110
(1667318058.981912) vcan0 525#5110511052105210
(1667318058.993784) vcan0 521#DD000000FCFE
(1667318058.993942) vcan0 525#5110511052105210
(1667318059.005250) vcan0 525#5110511051105110
(1667318059.016391) vcan0 521#5CFF00001002
(1667318059.016560) vcan0 525#5110511051105110
(1667318059.027013) vcan0 525#5110511051105110
(1667318059.038033) vcan0 521#86000000E702
(1667318059.038249) vcan0 525#5110511051105110
(1667318059.048522) vcan0 525#5110511051105110
(1667318059.058367) vcan0 521#A40200001001
(1667318059.058522) vcan0 525#5110511051105110
(1667318059.068341) vcan0 525#5010501051105110
(1667318059.077888) vcan0 521#0C0200001700
(1667318059.078078) vcan0 525#5110511051105110
(1667318059.086864) vcan0 525#5110511051105110
(1667318059.095820) vcan0 521#DC000000DB00
(1667318059.095979) vcan0 525#5110511051105110
(1667318059.104096) vcan0 525#5110511051105110
(1667318059.113968) vcan0 521#DC000000DB00
(1667318059.114145) vcan0 525#5110511051105110
(1667318059.123835) vcan0 525#5110511052105210
(1667318059.133252) vcan0 521#DC00000033FF
(1667318059.133407) vcan0 525#5110511052105110
(1667318059.133515) vcan0 526#6C2D
(1667318059.143760) vcan0 525#5110511051105210
(1667318059.154921) vcan0 521#15FF0000A601
(1667318059.155080) vcan0 525#5210521051105110
(1667318059.165165) vcan0 525#5110511051105110
(1667318059.176383) vcan0 521#170000009E02
(1667318059.176557) vcan0 525#5110511051105110
(1667318059.188242) vcan0 525#5110511051105110
(1667318059.200302) vcan0 521#20020000A601
(1667318059.200459) vcan0 525#5110511051105110
(1667318059.212061) vcan0 525#5110511051105110
(1667318059.223480) vcan0 521#EE0300000FFF
(1667318059.223581) vcan0 525#5010501052105210
(1667318059.234967) vcan0 525#5110511051105110
(1667318059.247021) vcan0 521#DC0000007300
(1667318059.247128) vcan0 525#5110511051105110
(1667318059.257574) vcan0 525#5110511051105110
(1667318059.267859) vcan0 521#DC000000DB00
(1667318059.267951) vcan0 525#5110511051105110
(1667318059.278426) vcan0 525#5110511051105110
(1667318059.289585) vcan0 521#DE000000EDFB
(1667318059.289686) vcan0 525#5110511052105210
(1667318059.299007) vcan0 525#5110511051105210
(1667318059.308345) vcan0 521#DE000000FAFF
(1667318059.308441) vcan0 525#5110511051105110
(1667318059.317887) vcan0 525#5110511051105110
(1667318059.326214) vcan0 521#ADFF0000EA02
(1667318059.326313) vcan0 525#5110511051105110
(1667318059.335095) vcan0 525#5110511051105110
(1667318059.343270) vcan0 521#530100007002
(1667318059.343369) vcan0 525#5110511051105110
(1667318059.343433) vcan0 526#642D
(1667318059.353229) vcan0 525#5110511051105110
(1667318059.362667) vcan0 521#69030000F9FF
(1667318059.362767) vcan0 525#5010501051105110
(1667318059.372507) vcan0 525#5110511051105110
(1667318059.382692) vcan0 521#DD0000008800
(1667318059.382806) vcan0 525#5110511051105110
(1667318059.393603) vcan0 525#5110511051105110
(1667318059.404598) vcan0 521#DC000000DB00
(1667318059.404713) vcan0 525#5110511051105110
(1667318059.415490) vcan0 525#5110511051105110
(1667318059.427408) vcan0 521#DD0000006AFF
(1667318059.427524) vcan0 525#5110511052105110
(1667318059.440227) vcan0 525#5110511052105210
(1667318059.452162) vcan0 521#DD00000055FF
(1667318059.452437) vcan0 525#5110511051105210
(1667318059.465427) vcan0 525#5110511051105110
(1667318059.477496) vcan0 521#51000000DF01
(1667318059.477768) vcan0 525#5110511051105110
(1667318059.489181) vcan0 525#5110511051105110
(1667318059.505211) vcan0 521#E70000009B02
(1667318059.505389) vcan0 525#5110511051105110
(1667318059.514453) vcan0 525#5110511051105110
(1667318059.524815) vcan0 521#FB020000A600
(1667318059.524951) vcan0 525#5110511051105110
(1667318059.534993) vcan0 525#5010501051105110
(1667318059.545525) vcan0 521#F8000000BB00
(1667318059.545653) vcan0 525#5110511051105110
(1667318059.554604) vcan0 525#5110511051105110
(1667318059.564227) vcan0 521#DC000000DB00
(1667318059.564351) vcan0 525#5110511051105110
(1667318059.564429) vcan0 526#5B2D
(1667318059.573583) vcan0 525#5110511051105110
(1667318059.581991) vcan0 521#DC000000DB00
(1667318059.582118) vcan0 525#5110511051105110
(1667318059.590246) vcan0 525#5110511052105210
(1667318059.598583) vcan0 521#DD000000E2FE
(1667318059.598703) vcan0 525#5110511052105210
(1667318059.606692) vcan0 525#5110511051105110
(1667318059.614977) vcan0 521#25FF0000FB01
(1667318059.615090) vcan0 525#5210521051105110
(1667318059.624874) vcan0 525#5110511051105110
(1667318059.634416) vcan0 521#100000003803
(1667318059.634677) vcan0 525#5110511051105110
(1667318059.644452) vcan0 525#5110511051105110
(1667318059.654900) vcan0 521#25020000A901
(1667318059.655056) vcan0 525#5110511051105110
(1667318059.665821) vcan0 525#5110511051105110
(1667318059.676452) vcan0 521#8B0300003CFF
(1667318059.676587) vcan0 525#5010501051105110
(1667318059.687267) vcan0 525#5110511051105110
(1667318059.698756) vcan0 521#DC0000006700
(1667318059.698878) vcan0 525#5110511051105110
(1667318059.710606) vcan0 525#5110511051105110
(1667318059.722104) vcan0 521#DC000000DB00
(1667318059.722225) vcan0 525#5110511051105110
(1667318059.734863) vcan0 525#5110511051105110
(1667318059.746487) vcan0 521#DE000000C5FB
(1667318059.746610) vcan0 525#5110511052105210
(1667318059.758408) vcan0 525#5110511052105210
(1667318059.769862) vcan0 521#DE000000AB00
(1667318059.770005) vcan0 525#5110511051105110
(1667318059.770098) vcan0 526#512D
(1667318059.780245) vcan0 525#5110511051105110
(1667318059.790912) vcan0 521#D4FF0000E602
(1667318059.791030) vcan0 525#5110511051105110
(1667318059.802788) vcan0 525#5110511051105110
(1667318059.812193) vcan0 521#2D010000C001
(1667318059.812309) vcan0 525#3C103C103C103C10
(1667318059.822328) vcan0 525#2710271027102710
(1667318059.832008) vcan0 521#0803000023FF
(1667318059.832121) vcan0 525#1210121013101310
(1667318059.841240) vcan0 525#FD0FFD0FFE0FFE0F
(1667318059.849655) vcan0 521#D0000000E2FF
(1667318059.849770) vcan0 525#E90FE90FE90FE90F
(1667318059.858894) vcan0 525#D40FD40FD40FD40F
(1667318059.867327) vcan0 521#CD000000CD00
(1667318059.867438) vcan0 525#BF0FBF0FBF0FBF0F
(1667318059.877512) vcan0 525#AA0FAA0FAA0FAA0F
(1667318059.886967) vcan0 521#CB000000CA00
(1667318059.887086) vcan0 525#950F950F950F950F
(1667318059.897062) vcan0 525#800F800F820F800F
(1667318059.907361) vcan0 521#CC000000F5F9
(1667318059.907477) vcan0 525#6B0F6B0F6D0F6D0F
(1667318059.917961) vcan0 525#570F570F570F570F
(1667318059.928827) vcan0 521#28080000900E
(1667318059.928945) vcan0 525#400F3F0F3F0F3E0F
(1667318059.939234) vcan0 525#2C0F2B0F2C0F2B0F
(1667318059.950422) vcan0 521#9B0000003F03
(1667318059.950550) vcan0 525#180F180F170F170F
(1667318059.962501) vcan0 525#030F030F030F030F
(1667318059.974438) vcan0 521#A5010000E100
(1667318059.974628) vcan0 525#EE0EEE0EEE0EEE0E
(1667318059.974812) vcan0 526#472D
(1667318059.986154) vcan0 525#D90ED90ED90ED90E
(1667318059.997994) vcan0 521#61010000E6FF
(1667318059.998189) vcan0 525#C40EC40EC40EC50E
(1667318060.009622) vcan0 525#AF0EAF0EB00EB00E
(1667318060.020484) vcan0 521#BE000000DBFF
(1667318060.020675) vcan0 525#9A0E9A0E9B0E9B0E
(1667318060.031205) vcan0 525#860E860E860E860E
(1667318060.042040) vcan0 521#BB0000008B00
(1667318060.042297) vcan0 525#710E710E710E710E
(1667318060.052626) vcan0 525#5C0E5C0E5C0E5C0E
(1667318060.062808) vcan0 521#BA000000F5FE
(1667318060.063062) vcan0 525#470E470E480E470E
(1667318060.072487) vcan0 525#330E330E330E330E
(1667318060.082315) vcan0 521#90FD00002A01
(1667318060.082496) vcan0 525#1E0E1E0E1D0E1D0E
(1667318060.091249) vcan0 525#090E090E080E080E
(1667318060.103160) vcan0 521#E7080000150C
(1667318060.103374) vcan0 525#F20DF10DF10DF00D
(1667318060.116458) vcan0 525#DF0DDF0DDE0DDE0D
(1667318060.125510) vcan0 521#0EFF0000F602
(1667318060.125609) vcan0 525#CA0DCA0DC90DC90D
(1667318060.134848) vcan0 525#B50DB50DB40DB40D
(1667318060.144096) vcan0 521#840000008001
(1667318060.144190) vcan0 525#A00DA00DA00DA00D
(1667318060.153488) vcan0 525#8B0D8B0D8B0D8B0D
(1667318060.163559) vcan0 521#2502000069FF
(1667318060.163655) vcan0 525#760D760D760D760D
(1667318060.174003) vcan0 525#610D610D620D620D
(1667318060.185079) vcan0 521#94010000BBFE
(1667318060.185168) vcan0 525#4C0D4C0D4D0D4D0D
(1667318060.185227) vcan0 526#3C2D
(1667318060.195317) vcan0 525#370D370D380D380D
(1667318060.207311) vcan0 521#170000003600
(1667318060.207416) vcan0 525#230D230D230D230D
(1667318060.217495) vcan0 525#0E0D0E0D0E0D0E0D
(1667318060.227636) vcan0 521#EFFD0000A900
(1667318060.227738) vcan0 525#F90CFA0CF90CF90C
(1667318060.238601) vcan0 525#E40CE50CE40CE40C
(1667318060.249571) vcan0 521#41FE0000A400
(1667318060.249670) vcan0 525#D00CD00CCF0CCF0C
(1667318060.260532) vcan0 525#BB0CBB0CBA0CBA0C
(1667318060.271625) vcan0 521#D6FD00002902
(1667318060.271726) vcan0 525#A60CA60CA50CA50C
(1667318060.282101) vcan0 525#910C910C900C900C
(1667318060.292275) vcan0 521#820100006806
(1667318060.292376) vcan0 525#7B0C7B0C7A0C7A0C
(1667318060.302407) vcan0 525#670C670C660C660C
(1667318060.311586) vcan0 521#9FFE0000CC02
(1667318060.311689) vcan0 525#520C520C510C510C
(1667318060.320632) vcan0 525#3D0C3D0C3C0C3C0C
(1667318060.328880) vcan0 521#F0FF00009D01
(1667318060.328984) vcan0 525#280C280C280C280C
(1667318060.337785) vcan0 525#130C130C130C130C
(1667318060.347414) vcan0 521#6B010000DCFF
(1667318060.347541) vcan0 525#FE0BFE0BFE0BFE0B
(1667318060.356618) vcan0 525#E90BE90BEA0BEA0B
(1667318060.366030) vcan0 521#670200003EFE
(1667318060.366146) vcan0 525#D40BD40BD50BD50B
(1667318060.377358) vcan0 525#BF0BBF0BC00BC00B
(1667318060.387913) vcan0 521#5F010000BDFE
(1667318060.388036) vcan0 525#AA0BAB0BAB0BAB0B
(1667318060.388116) vcan0 526#332D
(1667318060.398554) vcan0 525#960B960B960B960B
(1667318060.409825) vcan0 521#2B00000019FF
(1667318060.409948) vcan0 525#810B810B810B810B
(1667318060.420953) vcan0 525#6C0B6C0B6C0B6C0B
(1667318060.432557) vcan0 521#B2FF00006CFF
(1667318060.432676) vcan0 525#570B570B570B570B
(1667318060.444440) vcan0 525#420B430B420B420B
(1667318060.457042) vcan0 521#A3FE0000AB00
(1667318060.457171) vcan0 525#2E0B2E0B2D0B2D0B
(1667318060.468951) vcan0 525#190B190B180B180B
(1667318060.480510) vcan0 521#DDFD0000E801
(1667318060.480639) vcan0 525#040B040B030B030B
(1667318060.492549) vcan0 525#EE0AED0AED0AEC0A
(1667318060.503184) vcan0 521#ACFE00009C03
(1667318060.503362) vcan0 525#DA0ADA0AD90AD90A
(1667318060.514274) vcan0 525#C50AC60AC40AC40A
(1667318060.524814) vcan0 521#38FE0000A202
(1667318060.524933) vcan0 525#B10AB10AAF0AAF0A
(1667318060.535504) vcan0 525#9C0A9C0A9B0A9B0A
(1667318060.545132) vcan0 521#39FF0000DC01
(1667318060.545251) vcan0 525#870A870A860A860A
(1667318060.555028) vcan0 525#720A720A710A710A
(1667318060.564571) vcan0 521#6F0000008C00
(1667318060.564718) vcan0 525#5C0A5C0A5C0A5C0A
(1667318060.573666) vcan0 525#470A470A480A480A
(1667318060.582029) vcan0 521#8201000022FF
(1667318060.582166) vcan0 525#320A320A330A330A
(1667318060.590464) vcan0 525#1D0A1D0A1E0A1E0A
(1667318060.600290) vcan0 521#220200000DFE
(1667318060.600411) vcan0 525#090A090A0A0A0A0A
(1667318060.600490) vcan0 526#292D
(1667318060.609538) vcan0 525#F409F409F509F509
(1667318060.619034) vcan0 521#BF01000013FE
(1667318060.619152) vcan0 525#DF09DF09E009E009
(1667318060.629773) vcan0 525#CA09CA09CB09CB09
(1667318060.640424) vcan0 521#420100000FFE
(1667318060.640540) vcan0 525#B509B509B609B609
(1667318060.650649) vcan0 525#A009A009A109A109
(1667318060.661764) vcan0 521#73000000C9FE
(1667318060.661884) vcan0 525#8C098C098C098C09
(1667318060.672922) vcan0 525#7709770977097709
(1667318060.684513) vcan0 521#77FF0000D2FF
(1667318060.684643) vcan0 525#6209620962096209
(1667318060.696297) vcan0 525#4D094D094D094D09
(1667318060.708643) vcan0 521#9DFE0000E500
(1667318060.708798) vcan0 525#3909390938093809
(1667318060.721815) vcan0 525#2409240923092309
(1667318060.732857) vcan0 521#A20200004D06
(1667318060.732994) vcan0 525#0E090D090D090D09
(1667318060.744866) vcan0 525#FA08FA08F908F908
(1667318060.757040) vcan0 521#17FE00003B02
(1667318060.757178) vcan0 525#E508E508E408E408
(1667318060.767960) vcan0 525#D008D008CF08CF08
(1667318060.779171) vcan0 521#55FE00001B02
(1667318060.779313) vcan0 525#BB08BB08BA08BA08
(1667318060.790272) vcan0 525#A608A608A608A608
(1667318060.800468) vcan0 521#F5FE00009601
(1667318060.800608) vcan0 525#9108910891089108
(1667318060.809784) vcan0 525#7C087C087C087C08
(1667318060.819409) vcan0 521#C6FF0000BC00
(1667318060.819548) vcan0 525#6708670867086708
(1667318060.819793) vcan0 526#1F2D
(1667318060.828873) vcan0 525#5208520852085208
(1667318060.837304) vcan0 521#9D000000C0FF
(1667318060.837536) vcan0 525#3D083D083E083E08
(1667318060.845848) vcan0 525#2808280829082908
(1667318060.854685) vcan0 521#4E010000D8FE
(1667318060.854827) vcan0 525#1308130814081408
(1667318060.863248) vcan0 525#FE07FE07FF07FF07
(1667318060.871874) vcan0 521#B80100002FFE
(1667318060.872028) vcan0 525#EA07EA07EA07EA07
(1667318060.881755) vcan0 525#D507D507D607D607
(1667318060.891341) vcan0 521#CA010000DFFD
(1667318060.891480) vcan0 525#C007C007C107C107
(1667318060.900847) vcan0 525#AB07AB07AC07AC07
(1667318060.911545) vcan0 521#88010000EFFD
(1667318060.911659) vcan0 525#9607960797079707
(1667318060.922475) vcan0 525#8107810782078207
(1667318060.933468) vcan0 521#0501000051FE
(1667318060.933571) vcan0 525#6C076C076D076D07
(1667318060.944397) vcan0 525#5807580758075807
(1667318060.956178) vcan0 521#5E000000ECFE
(1667318060.956284) vcan0 525#4307430743074307
(1667318060.968058) vcan0 525#2E072E072E072E07
(1667318060.979818) vcan0 521#B0FF0000A2FF
(1667318060.979922) vcan0 525#1907190719071907
(1667318060.992783) vcan0 525#0407040704070407
(1667318061.005581) vcan0 521#14FF00005400
(1667318061.005684) vcan0 525#F006F006EF06EF06
(1667318061.017485) vcan0 525#DB06DB06DA06DA06
(1667318061.029473) vcan0 521#9DFE0000EB00
(1667318061.029579) vcan0 525#C606C606C506C506
(1667318061.029644) vcan0 526#172D
(1667318061.040196) vcan0 525#B106B106B006B006
(1667318061.051083) vcan0 521#73FF00007402
(1667318061.051180) vcan0 525#9C069C069B069B06
(1667318061.061829) vcan0 525#8706870687068706
(1667318061.072584) vcan0 521#4AFE00009101
(1667318061.072682) vcan0 525#7206720672067206
(1667318061.083323) vcan0 525#5E065E065D065D06
(1667318061.093081) vcan0 521#60FE00008A01
(1667318061.093187) vcan0 525#4906490648064806
(1667318061.102798) vcan0 525#3406340633063306
(1667318061.112739) vcan0 521#A0FE00005501
(1667318061.112837) vcan0 525#1F061F061E061E06
(1667318061.121256) vcan0 525#0A060A0609060906
(1667318061.129436) vcan0 521#FEFE0000F800
(1667318061.129545) vcan0 525#F505F505F405F405
(1667318061.139520) vcan0 525#E005E005E005E005
(1667318061.148888) vcan0 521#6EFF00008100
(1667318061.149000) vcan0 525#CB05CB05CB05CB05
(1667318061.158354) vcan0 525#B605B605B605B605
(1667318061.169167) vcan0 521#E2FF0000FEFF
(1667318061.169357) vcan0 525#A105A105A105A105
(1667318061.179789) vcan0 525#8C058C058C058C05
(1667318061.190573) vcan0 521#4E0000007FFF
(1667318061.190747) vcan0 525#7705770578057805
(1667318061.201236) vcan0 525#6205620563056305
(1667318061.213205) vcan0 521#A90000000EFF
(1667318061.213340) vcan0 525#4D054D054E054E05
(1667318061.224709) vcan0 525#3905390539053905
(1667318061.236751) vcan0 521#EA000000B5FE
(1667318061.236882) vcan0 525#2405240524052405
(1667318061.236972) vcan0 526#0B2D
(1667318061.249023) vcan0 525#0F050F050F050F05
(1667318061.261835) vcan0 521#0F01000079FE
(1667318061.261969) vcan0 525#FA04FA04FA04FA04
(1667318061.273659) vcan0 525#E504E504E604E604
(1667318061.284731) vcan0 521#180100005AFE
(1667318061.284861) vcan0 525#D004D004D104D104
(1667318061.295982) vcan0 525#BB04BB04BC04BC04
(1667318061.307125) vcan0 521#0901000058FE
(1667318061.307259) vcan0 525#A604A604A704A704
(1667318061.317578) vcan0 525#9104910492049204
(1667318061.329494) vcan0 521#E40000006EFE
(1667318061.329630) vcan0 525#7D047D047D047D04
(1667318061.340896) vcan0 525#6804680468046804
(1667318061.351939) vcan0 521#B100000097FE
(1667318061.352159) vcan0 525#5304530453045304
(1667318061.361359) vcan0 525#3E043E043E043E04
(1667318061.371130) vcan0 521#74000000CDFE
(1667318061.371358) vcan0 525#290429042A042A04
(1667318061.379519) vcan0 525#1404140415041504
(1667318061.387858) vcan0 521#330000000AFF
(1667318061.388076) vcan0 525#FF03FF0300040004
(1667318061.398398) vcan0 525#EB03EB03EB03EB03
(1667318061.408080) vcan0 521#F3FF000049FF
(1667318061.408292) vcan0 525#D603D603D603D603
(1667318061.417292) vcan0 525#C103C103C103C103
(1667318061.427145) vcan0 521#B7FF000087FF
(1667318061.427296) vcan0 525#AC03AC03AC03AC03
(1667318061.437496) vcan0 525#9703970397039703
(1667318061.448134) vcan0 521#81FF0000BEFF
(1667318061.448287) vcan0 525#8203820382038203
(1667318061.448371) vcan0 526#012D
(1667318061.458555) vcan0 525#6D036D036D036D03
(1667318061.468918) vcan0 521#54FF0000EFFF
(1667318061.469030) vcan0 525#5903590358035803
(1667318061.480949) vcan0 525#4403440343034303
(1667318061.492490) vcan0 521#2FFF00001700
(1667318061.492613) vcan0 525#2F032F032F032F03
(1667318061.504257) vcan0 525#1A031A031A031A03
(1667318061.516758) vcan0 521#14FF00003500
(1667318061.516911) vcan0 525#0503050305030503
(1667318061.528681) vcan0 525#F002F002F002F002
(1667318061.540078) vcan0 521#00FF00004A00
(1667318061.540234) vcan0 525#DB02DB02DB02DB02
(1667318061.551902) vcan0 525#C602C602C602C602
(1667318061.562295) vcan0 521#F5FE00005700
(1667318061.562450) vcan0 525#B202B202B102B102
(1667318061.573105) vcan0 525#9D029D029C029C02
(1667318061.583643) vcan0 521#F0FE00005D00
(1667318061.583795) vcan0 525#8802880287028702
(1667318061.594460) vcan0 525#7302730273027302
(1667318061.603697) vcan0 521#F0FE00005C00
(1667318061.603862) vcan0 525#5E025E025E025E02
(1667318061.613617) vcan0 525#4902490249024902
(1667318061.622938) vcan0 521#F5FE00005600
(1667318061.623094) vcan0 525#3402340234023402
(1667318061.632261) vcan0 525#1F021F021F021F02
(1667318061.641537) vcan0 521#FDFE00004B00
(1667318061.641695) vcan0 525#0A020A020A020A02
(1667318061.650959) vcan0 525#F601F601F501F501
(1667318061.660388) vcan0 521#07FF00003E00
(1667318061.660512) vcan0 525#E101E101E001E001
(1667318061.660591) vcan0 526#F52C
(1667318061.669697) vcan0 525#CC01CC01CB01CB01
(1667318061.680293) vcan0 521#13FF00002F00
(1667318061.680419) vcan0 525#B701B701B701B701
(1667318061.691006) vcan0 525#A201A201A201A201
(1667318061.701521) vcan0 521#20FF00001E00
(1667318061.701653) vcan0 525#8D018D018D018D01
(1667318061.712326) vcan0 525#7801780178017801
(1667318061.724012) vcan0 521#2CFF00000D00
(1667318061.724156) vcan0 525#6301630163016301
(1667318061.735939) vcan0 525#4E014E014E014E01
(1667318061.747430) vcan0 521#39FF0000FCFF
(1667318061.747533) vcan0 525#3901390139013901
(1667318061.760036) vcan0 525#2501250124012401
(1667318061.771770) vcan0 521#45FF0000ECFF
(1667318061.771849) vcan0 525#1001100110011001
(1667318061.783582) vcan0 525#FB00FB00FB00FB00
(1667318061.795680) vcan0 521#50FF0000DCFF
(1667318061.795783) vcan0 525#E600E600E600E600
(1667318061.806435) vcan0 525#D100D100D100D100
(1667318061.818138) vcan0 521#5AFF0000CDFF
(1667318061.818378) vcan0 525#BC00BC00BC00BC00
(1667318061.829145) vcan0 525#A700A700A700A700
(1667318061.839435) vcan0 521#63FF0000BFFF
(1667318061.839677) vcan0 525#9200920092009200
(1667318061.848598) vcan0 525#7D007D007D007D00
(1667318061.859213) vcan0 521#6BFF0000B2FF
(1667318061.859426) vcan0 525#6900690069006900
(1667318061.868277) vcan0 525#5400540054005400
(1667318061.877454) vcan0 521#73FF0000A6FF
(1667318061.877692) vcan0 525#3F003F003F003F00
(1667318061.877860) vcan0 526#EA2C
(1667318061.888541) vcan0 525#2A002A002A002A00
(1667318061.896441) vcan0 521#7AFF00009AFF
(1667318061.896602) vcan0 525#1500150015001500
(1667318061.905344) vcan0 525#0000000000000000
(1667318061.914036) vcan0 521#E5FF0000F8FF
(1667318061.914211) vcan0 525#0000000000000000
(1667318061.924055) vcan0 525#0000000000000000
(1667318061.935163) vcan0 521#FDFF00000700
(1667318061.935324) vcan0 525#0000000000000000
(1667318061.943441) vcan0 525#0000000000000000
(1667318061.954237) vcan0 521#040000000700
(1667318061.954363) vcan0 525#0000000000000000
(1667318061.964605) vcan0 525#0000000000000000
(1667318061.975435) vcan0 521#070000000700
(1667318061.975519) vcan0 525#0000000000000000
(1667318061.985690) vcan0 525#0000000000000000
(1667318061.997530) vcan0 521#080000000600
(1667318061.997613) vcan0 525#0000000000000000
(1667318062.008885) vcan0 525#0000000000000000
(1667318062.020235) vcan0 521#080000000600
(1667318062.020345) vcan0 525#0000000000000000
(1667318062.032963) vcan0 525#0000000000000000
(1667318062.044703) vcan0 521#070000000500
(1667318062.044811) vcan0 525#0000000000000000
(1667318062.056534) vcan0 525#0000000000000000
(1667318062.068224) vcan0 521#060000000400
(1667318062.068328) vcan0 525#0000000000000000
(1667318062.079209) vcan0 525#0000000000000000
(1667318062.089775) vcan0 521#050000000400
(1667318062.089906) vcan0 525#0000000000000000
(1667318062.090017) vcan0 526#E12C
(1667318062.101285) vcan0 525#0000000000000000
(1667318062.112143) vcan0 521#050000000400
(1667318062.112389) vcan0 525#0000000000000000
(1667318062.121522) vcan0 525#0000000000000000
(1667318062.130785) vcan0 521#050000000300
(1667318062.130998) vcan0 525#0000000000000000
(1667318062.140770) vcan0 525#0000000000000000
(1667318062.149622) vcan0 521#050000000300
(1667318062.149846) vcan0 525#0000000000000000
(1667318062.157959) vcan0 525#0000000000000000
(1667318062.167759) vcan0 521#050000000300
(1667318062.167981) vcan0 525#0000000000000000
(1667318062.176725) vcan0 525#0000000000000000
(1667318062.186654) vcan0 521#050000000300
(1667318062.186809) vcan0 525#0000000000000000
(1667318062.197117) vcan0 525#0000000000000000
(1667318062.208222) vcan0 521#050000000300
(1667318062.208388) vcan0 525#0000000000000000
(1667318062.218659) vcan0 525#0000000000000000
(1667318062.229704) vcan0 521#050000000300
(1667318062.229867) vcan0 525#0000000000000000
(1667318062.243537) vcan0 525#0000000000000000
(1667318062.254194) vcan0 521#050000000300
(1667318062.254332) vcan0 525#0000000000000000
(1667318062.266300) vcan0 525#0000000000000000
(1667318062.277810) vcan0 521#050000000400
(1667318062.277934) vcan0 525#0000000000000000
(1667318062.289642) vcan0 525#0000000000000000
(1667318062.301121) vcan0 521#050000000400
(1667318062.301241) vcan0 525#0000000000000000
(1667318062.301323) vcan0 526#D72C
(1667318062.311383) vcan0 525#0000000000000000
(1667318062.321888) vcan0 521#050000000400
(1667318062.322039) vcan0 525#0000000000000000
(1667318062.332881) vcan0 525#0000000000000000
(1667318062.343458) vcan0 521#050000000400
(1667318062.343584) vcan0 525#0000000000000000
(1667318062.353215) vcan0 525#0000000000000000
(1667318062.362903) vcan0 521#050000000400
(1667318062.363024) vcan0 525#0000000000000000
(1667318062.371978) vcan0 525#0000000000000000
(1667318062.380305) vcan0 521#050000000400
(1667318062.380432) vcan0 525#0000000000000000
(1667318062.388482) vcan0 525#0000000000000000
(1667318062.398086) vcan0 521#050000000400
(1667318062.398230) vcan0 525#0000000000000000
(1667318062.407875) vcan0 525#0000000000000000
(1667318062.417441) vcan0 521#050000000400
(1667318062.417560) vcan0 525#0000000000000000
(1667318062.429193) vcan0 525#0000000000000000
(1667318062.439874) vcan0 521#050000000400
(1667318062.440073) vcan0 525#0000000000000000
(1667318062.450691) vcan0 525#0000000000000000
(1667318062.461204) vcan0 521#050000000400
(1667318062.461407) vcan0 525#0000000000000000
(1667318062.473656) vcan0 525#0000000000000000
(1667318062.484834) vcan0 521#050000000400
(1667318062.485022) vcan0 525#0000000000000000
(1667318062.496901) vcan0 525#0000000000000000
(1667318062.508212) vcan0 521#050000000400
(1667318062.508414) vcan0 525#0000000000000000
(1667318062.508542) vcan0 526#CE2C
(1667318062.519808) vcan0 525#0000000000000000
(1667318062.531943) vcan0 521#050000000400
(1667318062.532132) vcan0 525#0000000000000000
(1667318062.543244) vcan0 525#0000000000000000
(1667318062.552758) vcan0 521#050000000400
(1667318062.552847) vcan0 525#0000000000000000
(1667318062.563052) vcan0 525#0000000000000000
(1667318062.573953) vcan0 521#050000000400
(1667318062.574046) vcan0 525#0000000000000000
(1667318062.583882) vcan0 525#0000000000000000
(1667318062.593672) vcan0 521#050000000400
(1667318062.593747) vcan0 525#0000000000000000
(1667318062.603521) vcan0 525#0000000000000000
(1667318062.612597) vcan0 521#050000000400
(1667318062.612674) vcan0 525#0000000000000000
(1667318062.621648) vcan0 525#0000000000000000
(1667318062.630598) vcan0 521#050000000400
(1667318062.630683) vcan0 525#0000000000000000
(1667318062.639801) vcan0 525#0000000000000000
(1667318062.649794) vcan0 521#050000000400
(1667318062.649880) vcan0 525#0000000000000000
(1667318062.659058) vcan0 525#0000000000000000
(1667318062.669611) vcan0 521#050000000400
(1667318062.669710) vcan0 525#0000000000000000
(1667318062.680251) vcan0 525#0000000000000000
(1667318062.690698) vcan0 521#050000000400
(1667318062.690805) vcan0 525#0000000000000000
(1667318062.702263) vcan0 525#0000000000000000
(1667318062.714504) vcan0 521#050000000400
(1667318062.714718) vcan0 525#0000000000000000
(1667318062.714859) vcan0 526#C32C
(1667318062.725961) vcan0 525#0000000000000000
(1667318062.738102) vcan0 521#050000000400
(1667318062.738426) vcan0 525#0000000000000000
(1667318062.749202) vcan0 525#0000000000000000
(1667318062.760232) vcan0 521#050000000400
(1667318062.760390) vcan0 525#0000000000000000
(1667318062.772142) vcan0 525#0000000000000000
(1667318062.782296) vcan0 521#050000000400
(1667318062.782413) vcan0 525#0000000000000000
(1667318062.792746) vcan0 525#0000000000000000
(1667318062.803767) vcan0 521#050000000400
(1667318062.803914) vcan0 525#0000000000000000
(1667318062.814530) vcan0 525#0000000000000000
(1667318062.824672) vcan0 521#050000000400
(1667318062.824824) vcan0 525#0000000000000000
(1667318062.833897) vcan0 525#0000000000000000
(1667318062.844132) vcan0 521#050000000400
(1667318062.844365) vcan0 525#0000000000000000
(1667318062.852210) vcan0 525#0000000000000000
(1667318062.860491) vcan0 521#050000000400
(1667318062.860641) vcan0 525#0000000000000000
(1667318062.868873) vcan0 525#0000000000000000
(1667318062.877466) vcan0 521#050000000400
(1667318062.877622) vcan0 525#0000000000000000
(1667318062.886743) vcan0 525#0000000000000000
(1667318062.896095) vcan0 521#050000000400
(1667318062.896244) vcan0 525#0000000000000000
(1667318062.905952) vcan0 525#0000000000000000
(1667318062.916480) vcan0 521#050000000400
(1667318062.916605) vcan0 525#0000000000000000
(1667318062.916688) vcan0 526#BA2C
(1667318062.926903) vcan0 525#0000000000000000
(1667318062.937516) vcan0 521#050000000400
(1667318062.937647) vcan0 525#0000000000000000
(1667318062.948112) vcan0 525#0000000000000000
(1667318062.959944) vcan0 521#050000000400
(1667318062.960068) vcan0 525#0000000000000000
(1667318062.971886) vcan0 525#1500150015001400
(1667318062.984724) vcan0 521#DAFFFAFF3601
(1667318062.984965) vcan0 525#2A002A002A002900
(1667318062.997074) vcan0 525#3F003F003F003E00
(1667318063.008417) vcan0 521#9300F6FF8C00
(1667318063.008695) vcan0 525#5300530054005300
(1667318063.019602) vcan0 525#6800680069006800
(1667318063.030835) vcan0 521#6F01F2FFB8FF
(1667318063.031113) vcan0 525#7D007D007E007D00
(1667318063.042877) vcan0 525#9200920093009200
(1667318063.052891) vcan0 521#0B02EFFF1EFF
(1667318063.053006) vcan0 525#A700A700A700A700
(1667318063.063318) vcan0 525#BB00BC00BC00BC00
(1667318063.073673) vcan0 521#2A02ECFF01FF
(1667318063.073795) vcan0 525#D000D000D100D100
(1667318063.083764) vcan0 525#E500E500E600E600
(1667318063.093038) vcan0 521#F201EAFF72FF
(1667318063.093154) vcan0 525#FA00FA00FA00FB00
(1667318063.102170) vcan0 525#0F010F010F011001
(1667318063.110669) vcan0 521#BE01E9FFF6FF
(1667318063.110838) vcan0 525#2301240124012501
(1667318063.119425) vcan0 525#3801390138013A01
(1667318063.128036) vcan0 521#C201E7FF3E00
(1667318063.128152) vcan0 525#4D014E014D014F01
(1667318063.128228) vcan0 526#AF2C
(1667318063.137516) vcan0 525#6201630162016401
(1667318063.149218) vcan0 521#9B01E6FF7C00
(1667318063.149334) vcan0 525#7701780176017901
(1667318063.158049) vcan0 525#8C018D018B018E01
(1667318063.168934) vcan0 521#6101E5FFDB00
(1667318063.169028) vcan0 525#A001A201A001A301
(1667318063.179580) vcan0 525#B501B701B501B801
(1667318063.190070) vcan0 521#2B01E5FF1401
(1667318063.190173) vcan0 525#CA01CC01BD01CD01
(1667318063.200605) vcan0 525#D801E101BD01E101
(1667318063.212011) vcan0 521#3001E4FFDF00
(1667318063.212110) vcan0 525#D801F601BD01F601
(1667318063.223581) vcan0 525#D8010B02BD010B02
(1667318063.235025) vcan0 521#2F01E4FF9C00
(1667318063.235121) vcan0 525#D8012002BD012002
(1667318063.247584) vcan0 525#D8013402BE013402
(1667318063.259138) vcan0 521#E900E3FF4D00
(1667318063.259234) vcan0 525#D8014902BE013E02
(1667318063.270856) vcan0 525#D8015302BE013F02
(1667318063.282918) vcan0 521#0301E3FF8FFF
(1667318063.283057) vcan0 525#D9015302BE013E02
(1667318063.293539) vcan0 525#D9015302BE013E02
(1667318063.303692) vcan0 521#E200E3FF90FF
(1667318063.303842) vcan0 525#D9015302BE013E02
(1667318063.314313) vcan0 525#D9015302BE013E02
(1667318063.324869) vcan0 521#C900E3FF97FF
(1667318063.325003) vcan0 525#D9015302BE013E02
(1667318063.334865) vcan0 525#D9015302BE013E02
(1667318063.344027) vcan0 521#BA00E2FF9CFF
(1667318063.344166) vcan0 525#D9015302BE013E02
(1667318063.344259) vcan0 526#A52C
(1667318063.353211) vcan0 525#D9015302BE013E02
(1667318063.362086) vcan0 521#B200E2FFA0FF
(1667318063.362261) vcan0 525#D9015302BE013E02
(1667318063.370988) vcan0 525#D9015302BE013E02
(1667318063.381182) vcan0 521#B100E2FF9EFF
(1667318063.381319) vcan0 525#D9015302BE013E02
(1667318063.391010) vcan0 525#D9015302BE013E02
(1667318063.400776) vcan0 521#B400E2FF99FF
(1667318063.400947) vcan0 525#D9015302BE013E02
(1667318063.411423) vcan0 525#D9015302BE013E02
(1667318063.422327) vcan0 521#B900E2FF92FF
(1667318063.422463) vcan0 525#D9015302BE013E02
(1667318063.432290) vcan0 525#D9015302BE013E02
(1667318063.442973) vcan0 521#C100E2FF89FF
(1667318063.443109) vcan0 525#D9015302BE013E02
(1667318063.455374) vcan0 525#D9015302BE013E02
(1667318063.466828) vcan0 521#C900E2FF7FFF
(1667318063.466996) vcan0 525#D9015302BE013E02
(1667318063.478494) vcan0 525#D9015302BE013E02
(1667318063.491407) vcan0 521#D100E2FF76FF
(1667318063.491540) vcan0 525#D9015302BE013E02
(1667318063.503296) vcan0 525#D9015302BE013E02
(1667318063.515247) vcan0 521#D300E2FF74FF
(1667318063.515415) vcan0 525#D9015302BE013E02
(1667318063.527192) vcan0 525#D9015302BE013E02
(1667318063.537945) vcan0 521#D300E2FF76FF
(1667318063.538129) vcan0 525#D9015302BE013E02
(1667318063.548370) vcan0 525#D9015302BE013E02
(1667318063.559099) vcan0 521#D000E2FF7CFF
(1667318063.559250) vcan0 525#D9015302BE013E02
(1667318063.559361) vcan0 526#9A2C
(1667318063.569304) vcan0 525#D9015302BE013E02
(1667318063.579017) vcan0 521#CB00E2FF85FF
(1667318063.579166) vcan0 525#D9015302BE013E02
(1667318063.588408) vcan0 525#D9015302BE013E02
(1667318063.597919) vcan0 521#C600E2FF8AFF
(1667318063.598108) vcan0 525#D9015302BE013E02
(1667318063.606168) vcan0 525#D9015302BE013E02
(1667318063.615209) vcan0 521#BC00E2FF90FF
(1667318063.615379) vcan0 525#D9015302BE013E02
(1667318063.624914) vcan0 525#D9015302BE013E02
(1667318063.634776) vcan0 521#AB00E2FF9DFF
(1667318063.634935) vcan0 525#D9015302BE013E02
(1667318063.644309) vcan0 525#D9015302BE013E02
(1667318063.655374) vcan0 521#9E00E2FFAAFF
(1667318063.655575) vcan0 525#D9015302BE013E02
(1667318063.666185) vcan0 525#D9015302BE013E02
(1667318063.677177) vcan0 521#9600E2FFB2FF
(1667318063.677347) vcan0 525#D9015302BE013E02
(1667318063.687727) vcan0 525#D9015302BE013E02
(1667318063.699663) vcan0 521#8A00E2FFBFFF
(1667318063.699829) vcan0 525#D9015302BE013E02
(1667318063.711114) vcan0 525#D9015302BE013E02
(1667318063.722902) vcan0 521#7900E2FFD1FF
(1667318063.723082) vcan0 525#D9015302BE013E02
(1667318063.735289) vcan0 525#D9015302BE013E02
(1667318063.747333) vcan0 521#6000E2FFEDFF
(1667318063.747462) vcan0 525#D9015302BE013E02
(1667318063.759816) vcan0 525#D9015302BE013E02
(1667318063.770937) vcan0 521#4A00E2FF0100
(1667318063.771066) vcan0 525#D9015302BE013E02
(1667318063.771152) vcan0 526#8F2C
(1667318063.782139) vcan0 525#D9015302BE013E02
(1667318063.793214) vcan0 521#3600E2FF1400
(1667318063.793361) vcan0 525#D9015302BE013E02
(1667318063.803606) vcan0 525#D9015302BE013E02
(1667318063.814541) vcan0 521#1800E2FF3300
(1667318063.814723) vcan0 525#D9015302BE013E02
(1667318063.824265) vcan0 525#D9015302BE013E02
(1667318063.834087) vcan0 521#0A00E2FF4400
(1667318063.834216) vcan0 525#D9015302BE013E02
(1667318063.843358) vcan0 525#D9015302BE013E02
(1667318063.852398) vcan0 521#FFFFE2FF5100
(1667318063.852527) vcan0 525#D9015302BE013E02
(1667318063.860577) vcan0 525#D9015302BE013E02
(1667318063.869451) vcan0 521#F6FFE2FF5C00
(1667318063.869580) vcan0 525#D9015302BE013E02
(1667318063.878113) vcan0 525#D9015302BE013E02
(1667318063.887903) vcan0 521#EEFFE2FF6600
(1667318063.888032) vcan0 525#D9015302BE013E02
(1667318063.897334) vcan0 525#D9015302BE013E02
(1667318063.906561) vcan0 521#E7FFE2FF6E00
(1667318063.906700) vcan0 525#D9015302BE013E02
(1667318063.916860) vcan0 525#D9015302BE013E02
(1667318063.927549) vcan0 521#E1FFE2FF7500
(1667318063.927683) vcan0 525#D9015302BE013E02
(1667318063.938332) vcan0 525#D9015302BE013E02
(1667318063.949149) vcan0 521#DBFFE2FF7A00
(1667318063.949290) vcan0 525#D9015302BE013E02
(1667318063.960850) vcan0 525#D9015302BE013E02
(1667318063.972812) vcan0 521#B0FFE2FFC700
(1667318063.972953) vcan0 525#D9015302BE013E02
(1667318063.973039) vcan0 526#852C
(1667318063.984844) vcan0 525#D9015302BE013E02
(1667318063.997581) vcan0 521#7EFFE2FFFA00
(1667318063.997755) vcan0 525#D9015302BE013E02
(1667318064.009206) vcan0 525#D9015302BE013E02
(1667318064.021479) vcan0 521#B5FFE2FFDA00
(1667318064.021755) vcan0 525#D9015402BE013E02
(1667318064.032821) vcan0 525#D9015402BE013E02
(1667318064.044054) vcan0 521#A5FFE2FFF600
(1667318064.044333) vcan0 525#D9015302BE013E02
(1667318064.054224) vcan0 525#D9015302BE013E02
(1667318064.066561) vcan0 521#A2FFE2FFEE00
(1667318064.066734) vcan0 525#D9015302BE013E02
(1667318064.076134) vcan0 525#D9015302BE013E02
(1667318064.085858) vcan0 521#A2FFE2FFEB00
(1667318064.085961) vcan0 525#D9015302BE013E02
(1667318064.095132) vcan0 525#D9015302BE013E02
(1667318064.104637) vcan0 521#A3FFE2FFE100
(1667318064.104744) vcan0 525#D9015302BE013E02
(1667318064.113095) vcan0 525#D9015302BE013E02
(1667318064.122032) vcan0 521#A6FFE2FFD500
(1667318064.122139) vcan0 525#D9015302BE013E02
(1667318064.131004) vcan0 525#D9015302BE013E02
(1667318064.140389) vcan0 521#9DFFE2FFD200
(1667318064.140474) vcan0 525#D9015302BE013E02
(1667318064.149820) vcan0 525#D9015302BE013E02
(1667318064.159697) vcan0 521#80FFE2FFF100
(1667318064.159780) vcan0 525#D9015302BE013E02
(1667318064.170141) vcan0 525#D9015302BE013E02
(1667318064.180980) vcan0 521#68FFE2FF0501
(1667318064.181064) vcan0 525#D9015302BE013E02
(1667318064.181118) vcan0 526#7D2C
(1667318064.191777) vcan0 525#D9015302BE013E02
(1667318064.202711) vcan0 521#66FFE2FFFA00
(1667318064.202791) vcan0 525#D9015302BE013E02
(1667318064.214134) vcan0 525#D9015302BE013E02
(1667318064.226077) vcan0 521#96FFE2FFB400
(1667318064.226174) vcan0 525#D9015302BE013E02
(1667318064.238686) vcan0 525#D9015302BE013E02
(1667318064.250935) vcan0 521#C7FFE2FF6F00
(1667318064.251153) vcan0 525#D9015302BE013E02
(1667318064.262224) vcan0 525#D9015302BE013E02
(1667318064.274135) vcan0 521#DDFFE2FF4A00
(1667318064.274353) vcan0 525#D9015302BE013E02
(1667318064.285482) vcan0 525#D9015302BE013E02
(1667318064.296357) vcan0 521#ECFFE2FF3200
(1667318064.296572) vcan0 525#D9015302BE013E02
(1667318064.307511) vcan0 525#D9015302BE013E02
(1667318064.318514) vcan0 521#F6FFE2FF2100
(1667318064.318731) vcan0 525#D9015302BE013E02
(1667318064.329722) vcan0 525#D9015302BE013E02
(1667318064.339079) vcan0 521#FFFFE2FF1200
(1667318064.339235) vcan0 525#D9015302BE013E02
(1667318064.348656) vcan0 525#D9015302BE013E02
(1667318064.359089) vcan0 521#0600E2FF0500
(1667318064.359242) vcan0 525#D9015302BE013E02
(1667318064.371841) vcan0 525#D9015302BE013E02
(1667318064.379096) vcan0 521#0E00E2FFF9FF
(1667318064.379213) vcan0 525#D9015302BE013E02
(1667318064.387781) vcan0 525#D9015302BE013E02
(1667318064.396795) vcan0 521#1400E2FFEEFF
(1667318064.396892) vcan0 525#D9015302BE013E02
(1667318064.396960) vcan0 526#722C
(1667318064.404943) vcan0 525#D9015302BE013E02
(1667318064.413273) vcan0 521#1B00E2FFE4FF
(1667318064.413366) vcan0 525#D9015302BE013E02
(1667318064.423182) vcan0 525#D9015302BE013E02
(1667318064.432838) vcan0 521#2000E2FFDBFF
(1667318064.432937) vcan0 525#D9015302BE013E02
(1667318064.442443) vcan0 525#D9015302BE013E02
(1667318064.452737) vcan0 521#2600E2FFD3FF
(1667318064.452836) vcan0 525#D9015302BE013E02
(1667318064.463418) vcan0 525#D9015302BE013E02
(1667318064.473809) vcan0 521#2B00E2FFCCFF
(1667318064.473908) vcan0 525#D9015302BE013E02
(1667318064.484385) vcan0 525#D9015302BE013E02
(1667318064.495722) vcan0 521#2F00E2FFC7FF
(1667318064.495866) vcan0 525#D9015302BE013E02
(1667318064.507746) vcan0 525#D9015302BE013E02
(1667318064.519105) vcan0 521#3200E2FFC3FF
(1667318064.519199) vcan0 525#D9015302BE013E02
(1667318064.531501) vcan0 525#D9015302BE013E02
(1667318064.544102) vcan0 521#3500E2FFC0FF
(1667318064.544215) vcan0 525#D9015302BE013E02
(1667318064.555487) vcan0 525#D9015302BE013E02
(1667318064.567093) vcan0 521#3800E2FFBFFF
(1667318064.567203) vcan0 525#D9015302BE013E02
(1667318064.578762) vcan0 525#D9015302BE013E02
(1667318064.589400) vcan0 521#3A00E2FFC0FF
(1667318064.589546) vcan0 525#D9015302BE013E02
(1667318064.599927) vcan0 525#D9015302BE013E02
(1667318064.610345) vcan0 521#3B00E2FFC2FF
(1667318064.610463) vcan0 525#D9015302BE013E02
(1667318064.610553) vcan0 526#6A2C
(1667318064.621198) vcan0 525#D9015302BE013E02
(1667318064.631339) vcan0 521#3C00E2FFC6FF
(1667318064.631470) vcan0 525#D9015302BE013E02
(1667318064.640663) vcan0 525#D9015302BE013E02
(1667318064.650315) vcan0 521#4F00E2FFAAFF
(1667318064.650444) vcan0 525#D9015302BE013E02
(1667318064.658830) vcan0 525#D9015302BE013E02
(1667318064.667316) vcan0 521#FEFFE2FF2A00
(1667318064.667465) vcan0 525#D9015302BE013E02
(1667318064.677496) vcan0 525#D9015302BE013E02
(1667318064.686671) vcan0 521#1400E2FF0C00
(1667318064.686820) vcan0 525#D9015302BE013E02
(1667318064.696062) vcan0 525#D9015302BE013E02
(1667318064.705630) vcan0 521#4400E2FFEBFF
(1667318064.705771) vcan0 525#D9015302BE013E02
(1667318064.716060) vcan0 525#D9015302BE013E02
(1667318064.726738) vcan0 521#4D00E2FFEBFF
(1667318064.726888) vcan0 525#D9015302BE013E02
(1667318064.737271) vcan0 525#D9015302BE013E02
(1667318064.747937) vcan0 521#5E00E2FFD1FF
(1667318064.748069) vcan0 525#D9015302BE013E02
(1667318064.759422) vcan0 525#D9015302BE013E02
(1667318064.771036) vcan0 521#7600E2FFB6FF
(1667318064.771180) vcan0 525#D9015302BE013E02
(1667318064.782463) vcan0 525#D9015302BE013E02
(1667318064.795142) vcan0 521#7500E2FFC2FF
(1667318064.795277) vcan0 525#D9015302BE013E02
(1667318064.806767) vcan0 525#D9015302BE013E02
(1667318064.818399) vcan0 521#5600E2FFF1FF
(1667318064.818532) vcan0 525#D9015302BE013E02
(1667318064.818620) vcan0 526#5F2C
(1667318064.830481) vcan0 525#D9015302BE013E02
(1667318064.841277) vcan0 521#4D00E2FF0800
(1667318064.841449) vcan0 525#D9015402BE013E02
(1667318064.851500) vcan0 525#D9015402BE013E02
(1667318064.862135) vcan0 521#4900E2FF1900
(1667318064.862305) vcan0 525#D8015402BE013E02
(1667318064.872394) vcan0 525#D8015402BE013E02
(1667318064.882099) vcan0 521#4800E2FF2800
(1667318064.882231) vcan0 525#D8015402BE013E02
(1667318064.892336) vcan0 525#D8015402BE013E02
(1667318064.902282) vcan0 521#4700E2FF3600
(1667318064.902415) vcan0 525#D8015402BE013E02
(1667318064.910680) vcan0 525#D8015402BE013E02
(1667318064.919244) vcan0 521#4700E2FF4300
(1667318064.919376) vcan0 525#D8015402BE013E02
(1667318064.928570) vcan0 525#D8015402BE013E02
(1667318064.938245) vcan0 521#4700E2FF4F00
(1667318064.938379) vcan0 525#D8015402BE013E02
(1667318064.947702) vcan0 525#D8015402BE013E02
(1667318064.958081) vcan0 521#4800E2FF5B00
(1667318064.958259) vcan0 525#D8015402BE013E02
(1667318064.969181) vcan0 525#D8015402BE013E02
(1667318064.981126) vcan0 521#4600E2FF6500
(1667318064.981301) vcan0 525#D8015402BE013F02
(1667318064.993178) vcan0 525#D8015402BE013F02
(1667318065.003966) vcan0 521#4500E2FF6D00
(1667318065.004079) vcan0 525#D8015402BE013F02
(1667318065.015939) vcan0 525#D8015402BE013F02
(1667318065.027868) vcan0 521#4400E2FF7500
(1667318065.027985) vcan0 525#D8015402BE013F02
(1667318065.028061) vcan0 526#552C
(1667318065.039427) vcan0 525#D8015402BE013F02
(1667318065.051026) vcan0 521#4100E2FF7A00
(1667318065.051130) vcan0 525#D8015402BE013F02
(1667318065.061752) vcan0 525#D8015402BE013F02
(1667318065.072404) vcan0 521#3E00E2FF7E00
(1667318065.072512) vcan0 525#D8015402BE013F02
(1667318065.082604) vcan0 525#D8015402BE013F02
(1667318065.093362) vcan0 521#3B00E2FF8000
(1667318065.093484) vcan0 525#D8015402BE013F02
(1667318065.103161) vcan0 525#D8015402BE013F02
(1667318065.113117) vcan0 521#3800E2FF8100
(1667318065.113240) vcan0 525#D8015402BE013F02
(1667318065.122985) vcan0 525#D8015402BE013F02
(1667318065.131375) vcan0 521#3700E2FF8100
(1667318065.131503) vcan0 525#D8015402BE013F02
(1667318065.141239) vcan0 525#D8015402BE013F02
(1667318065.151200) vcan0 521#3000E2FF7D00
(1667318065.151302) vcan0 525#D8015402BE013F02
(1667318065.161323) vcan0 525#D8015402BE013F02
(1667318065.172015) vcan0 521#2C00E2FF7900
(1667318065.172123) vcan0 525#D9015402BE013F02
(1667318065.182996) vcan0 525#D9015402BE013F02
(1667318065.193867) vcan0 521#2700E2FF7400
(1667318065.193990) vcan0 525#D9015402BE013F02
(1667318065.204879) vcan0 525#D9015402BE013F02
(1667318065.216243) vcan0 521#2400E2FF6E00
(1667318065.216343) vcan0 525#D9015302BE013F02
(1667318065.228260) vcan0 525#D9015302BE013F02
(1667318065.239727) vcan0 521#1E00E2FF6500
(1667318065.239839) vcan0 525#D9015302BE013F02
(1667318065.239942) vcan0 526#4A2C
(1667318065.251388) vcan0 525#D9015302BE013F02
(1667318065.263744) vcan0 521#1900E2FF5D00
(1667318065.263862) vcan0 525#D9015302BE013F02
(1667318065.274908) vcan0 525#D9015302BE013F02
(1667318065.286400) vcan0 521#CCFFE2FFE300
(1667318065.286583) vcan0 525#D9015302BD013F02
(1667318065.300975) vcan0 525#D9015302BD013F02
(1667318065.311017) vcan0 521#5500E2FF6000
(1667318065.311151) vcan0 525#D9015302BD013F02
(1667318065.320585) vcan0 525#D9015302BE013F02
(1667318065.330537) vcan0 521#FFFFE2FF9B00
(1667318065.330673) vcan0 525#D9015302BE013F02
(1667318065.340149) vcan0 525#D9015302BE013E02
(1667318065.349059) vcan0 521#E7FFE2FFA300
(1667318065.349192) vcan0 525#D9015302BE013E02
(1667318065.357852) vcan0 525#D9015302BE013E02
(1667318065.366758) vcan0 521#C4FFE2FFB200
(1667318065.366938) vcan0 525#D9015302BE013E02
(1667318065.375485) vcan0 525#D9015302BE013E02
(1667318065.384033) vcan0 521#C1FFE2FF9800
(1667318065.384162) vcan0 525#D9015302BE013E02
(1667318065.393577) vcan0 525#D9015302BE013E02
(1667318065.403220) vcan0 521#E0FFE2FF5E00
(1667318065.403347) vcan0 525#D9015302BE013E02
(1667318065.412788) vcan0 525#D9015302BE013E02
(1667318065.423340) vcan0 521#E6FFE2FF4200
(1667318065.423545) vcan0 525#D9015302BE013E02
(1667318065.434433) vcan0 525#D9015302BE013E02
(1667318065.444999) vcan0 521#E7FFE2FF3300
(1667318065.445137) vcan0 525#D9015302BE013E02
(1667318065.445225) vcan0 526#3D2C
(1667318065.455362) vcan0 525#D9015302BE013E02
(1667318065.467058) vcan0 521#E4FFE2FF2A00
(1667318065.467189) vcan0 525#D9015302BE013E02
(1667318065.478460) vcan0 525#D9015302BE013E02
(1667318065.490508) vcan0 521#E0FFE2FF2400
(1667318065.490640) vcan0 525#D9015302BE013E02
(1667318065.503219) vcan0 525#DA015302BE013E02
(1667318065.515098) vcan0 521#DAFFE2FF2000
(1667318065.515232) vcan0 525#DA015302BE013E02
(1667318065.526524) vcan0 525#DA015302BE013E02
(1667318065.538449) vcan0 521#D5FFE2FF1D00
(1667318065.538578) vcan0 525#DA015302BE013E02
(1667318065.549127) vcan0 525#DA015302BE013E02
(1667318065.560023) vcan0 521#CFFFE2FF1C00
(1667318065.560202) vcan0 525#DA015302BE013E02
(1667318065.570532) vcan0 525#DA015302BE013E02
(1667318065.581420) vcan0 521#C9FFE2FF1C00
(1667318065.581554) vcan0 525#DA015302BE013E02
(1667318065.592550) vcan0 525#DA015302BE013E02
(1667318065.601236) vcan0 521#C3FFE2FF1D00
(1667318065.601403) vcan0 525#DA015302BE013E02
(1667318065.611165) vcan0 525#DA015302BE013E02
(1667318065.619984) vcan0 521#BDFFE2FF1E00
(1667318065.620148) vcan0 525#DA015302BE013E02
(1667318065.628414) vcan0 525#DA015302BE013E02
(1667318065.637277) vcan0 521#B8FFE2FF2000
(1667318065.637416) vcan0 525#DA015302BE013E02
(1667318065.646789) vcan0 525#DA015302BE013E02
(1667318065.656650) vcan0 521#B2FFE2FF2300
(1667318065.656787) vcan0 525#DA015302BE013E02
(1667318065.656879) vcan0 526#332C
(1667318065.666824) vcan0 525#DA015302BE013E02
(1667318065.677670) vcan0 521#AEFFE2FF2600
(1667318065.677810) vcan0 525#DA015302BF013E02
(1667318065.688149) vcan0 525#DA015302BF013E02
(1667318065.699394) vcan0 521#ABFFE2FF2900
(1667318065.699534) vcan0 525#DA015302BF013E02
(1667318065.709770) vcan0 525#DA015302BF013E02
(1667318065.721574) vcan0 521#A8FFE2FF2C00
(1667318065.721711) vcan0 525#DA015302BF013E02
(1667318065.733179) vcan0 525#DA015302BF013E02
(1667318065.745152) vcan0 521#A7FFE2FF3000
(1667318065.745295) vcan0 525#D9015302BF013E02
(1667318065.757811) vcan0 525#D9015302BF013E02
(1667318065.769681) vcan0 521#A7FFE2FF3300
(1667318065.769846) vcan0 525#D9015302BF013E02
(1667318065.781132) vcan0 525#D9015302BF013E02
(1667318065.793273) vcan0 521#A9FFE2FF3600
(1667318065.793444) vcan0 525#D9015302BF013E02
(1667318065.803731) vcan0 525#D9015302BF013E02
(1667318065.814762) vcan0 521#ACFFE2FF3800
(1667318065.814936) vcan0 525#D9015302BF013E02
(1667318065.825209) vcan0 525#D9015302BF013E02
(1667318065.836296) vcan0 521#B4FFE2FF3A00
(1667318065.836474) vcan0 525#D9015302BF013E02
(1667318065.846210) vcan0 525#D9015302BF013E02
(1667318065.856346) vcan0 521#BBFFE2FF3D00
(1667318065.856486) vcan0 525#D9015302BE013E02
(1667318065.865295) vcan0 525#D9015302BE013E02
(1667318065.874379) vcan0 521#C3FFE2FF3E00
(1667318065.874634) vcan0 525#D9015302BE013E02
(1667318065.874766) vcan0 526#292C
(1667318065.883138) vcan0 525#D9015302BE013E02
(1667318065.893115) vcan0 521#46FFE2FFD800
(1667318065.893246) vcan0 525#D9015302BE013E02
(1667318065.901915) vcan0 525#D9015302BE013E02
(1667318065.911082) vcan0 521#1CFFE2FF2001
(1667318065.911198) vcan0 525#D9015302BE013E02
(1667318065.920182) vcan0 525#D9015302BE013E02
(1667318065.930907) vcan0 521#A6FFE2FF8800
(1667318065.931021) vcan0 525#D9015402BF013E02
(1667318065.941111) vcan0 525#D9015402BF013E02
(1667318065.951985) vcan0 521#F9FFE2FF3D00
(1667318065.952103) vcan0 525#D9015402BF013E02
(1667318065.962138) vcan0 525#D8015402BF013E02
(1667318065.973827) vcan0 521#3800E2FF0400
(1667318065.973947) vcan0 525#D8015402BF013E02
(1667318065.985141) vcan0 525#D8015402BE013E02
(1667318065.996845) vcan0 521#4A00E2FFFBFF
(1667318065.996963) vcan0 525#D8015402BE013E02
(1667318066.009504) vcan0 525#D8015402BE013E02
(1667318066.022352) vcan0 521#4600E2FF0E00
(1667318066.022612) vcan0 525#D8015402BE013E02
(1667318066.034467) vcan0 525#D8015402BE013E02
(1667318066.046497) vcan0 521#5500E2FF0E00
(1667318066.046717) vcan0 525#D8015402BE013E02
(1667318066.056961) vcan0 525#D8015402BE013E02
(1667318066.067978) vcan0 521#6600E2FF0B00
(1667318066.068197) vcan0 525#D8015402BE013E02
(1667318066.079014) vcan0 525#D8015402BE013E02
(1667318066.090004) vcan0 521#7A00E2FF0700
(1667318066.090231) vcan0 525#D8015402BE013E02
(1667318066.090376) vcan0 526#1E2C
(1667318066.099674) vcan0 525#D8015402BE013E02
(1667318066.109056) vcan0 521#8F00E2FF0300
(1667318066.109342) vcan0 525#D8015402BE013E02
(1667318066.119033) vcan0 525#D8015402BE013E02
(1667318066.126840) vcan0 521#A000E2FFFBFF
(1667318066.126962) vcan0 525#D8015402BE013E02
(1667318066.136024) vcan0 525#D8015402BE013E02
(1667318066.144076) vcan0 521#B300E2FFF5FF
(1667318066.144172) vcan0 525#D8015402BE013E02
(1667318066.153798) vcan0 525#D8015402BE013E02
(1667318066.162374) vcan0 521#C400E2FFEEFF
(1667318066.162617) vcan0 525#D8015402BE013F02
(1667318066.173762) vcan0 525#D8015402BE013F02
(1667318066.183669) vcan0 521#D500E2FFE8FF
(1667318066.183904) vcan0 525#D8015402BE013F02
(1667318066.199534) vcan0 525#D8015402BE013F02
(1667318066.211739) vcan0 521#E000E2FFE0FF
(1667318066.211851) vcan0 525#D8015402BE013F02
(1667318066.222011) vcan0 525#D8015402BE013F02
(1667318066.232980) vcan0 521#ED00E2FFD9FF
(1667318066.233066) vcan0 525#D8015402BE013F02
(1667318066.243250) vcan0 525#D8015402BE013F02
(1667318066.255169) vcan0 521#F600E2FFD2FF
(1667318066.255249) vcan0 525#D8015402BE013F02
(1667318066.266240) vcan0 525#D8015402BE013F02
(1667318066.277331) vcan0 521#FD00E2FFCCFF
(1667318066.277423) vcan0 525#D8015402BE013F02
(1667318066.288134) vcan0 525#D8015402BE013F02
(1667318066.298693) vcan0 521#0101E2FFC5FF
(1667318066.298802) vcan0 525#D8015402BE013F02
(1667318066.298872) vcan0 526#152C
(1667318066.308586) vcan0 525#D8015402BE013F02
(1667318066.317944) vcan0 521#0301E2FFBFFF
